;$FILEVERSION=1.1
;$STARTTIME=45854.8423968056
;
;   Start time: 16/07/2025 20:13:03.084.0
;   Generated by PCAN-View v5.3.2.952
;
;   Message Number
;   |         Time Offset (ms)
;   |         |        Type
;   |         |        |        ID (hex)
;   |         |        |        |     Data Length
;   |         |        |        |     |   Data Bytes (hex) ...
;   |         |        |        |     |   |
;---+--   ----+----  --+--  ----+---  +  -+ -- -- -- -- -- -- --
     1)         0.3  Rx         0076  8  0F 7A A0 87 DA 3E 00 00 
     2)         0.6  Rx         00B0  8  08 5F BA 8E FE 7F E7 0F 
     3)         1.8  Rx     18EF6303  8  0F 00 55 0D 49 0B 01 70 
     4)         2.0  Rx         009C  8  AC 2D 48 FF 03 14 00 00 
     5)         2.3  Rx     18EF6304  8  01 00 00 00 00 00 00 1B 
     6)         2.6  Rx     18EF6305  8  03 01 00 00 00 00 00 0C 
     7)         5.1  Rx         0085  8  02 0A 00 00 00 55 31 05 
     8)         5.3  Rx         00A9  8  42 0A 00 00 00 00 00 00 
     9)         5.6  Rx         00AE  8  B8 DB BE 03 00 00 68 00 
    10)         5.9  Rx         0110  8  3A 3A E6 05 80 78 00 80 
    11)         6.1  Rx         01BD  8  FF FF FF 1F FF FF FF 1F 
    12)         7.1  Rx         00A1  8  89 AF 00 00 00 00 00 00 
    13)         7.3  Rx         00A3  8  7D AF 00 00 00 00 00 00 
    14)         8.4  Rx         00B1  8  E2 04 FF 00 00 FF 1F 1E 
    15)         8.7  Rx         027D  8  00 40 01 00 00 00 00 00 
    16)        10.6  Rx         0233  8  02 FF 00 00 00 00 00 00 
    17)        11.7  Rx         0113  8  81 0A 00 7D 02 00 2F 01 
    18)        11.9  Rx         0134  8  06 04 30 55 F4 21 00 00 
    19)        14.6  Rx         046B  8  00 00 3C 50 50 6D 4C 10 
    20)        15.7  Rx         00D1  8  CF 0B E0 00 20 9F FF 64 
    21)        16.8  Rx         0312  8  00 A9 00 EF 00 5A E1 07 
    22)        17.0  Rx         0136  8  00 07 00 04 1C 00 00 00 
    23)        17.3  Rx         0099  8  EA 10 00 00 00 20 00 20 
    24)        17.5  Rx         00B9  8  8D 40 00 00 00 00 FF 32 
    25)        18.4  Rx         00B1  8  AF 05 FF 00 00 FF 1F 1E 
    26)        18.7  Rx         0170  8  FF FF 00 00 00 00 00 00 
    27)        18.9  Rx         0371  8  E5 4A F2 09 3E C5 38 01 
    28)        19.9  Rx         010B  8  00 00 AF 0B 00 9E 3F 00 
    29)        20.1  Rx         0076  8  0E 7A A0 87 DA 3E 00 00 
    30)        20.4  Rx         00B0  8  08 5F BA 8E FE 7F E7 0F 
    31)        21.8  Rx     18EF6303  8  10 27 01 F9 00 B2 04 08 
    32)        22.0  Rx         009C  8  AA 2E 48 FF 03 14 00 00 
    33)        22.2  Rx         013C  8  FF FF 00 01 DE 1F 02 01 
    34)        22.5  Rx     18EF6304  8  02 00 00 4A 4A 4A 80 0C 
    35)        22.8  Rx     18EF6305  8  04 03 00 03 00 03 00 00 
    36)        23.4  Rx         0489  8  00 94 39 80 43 79 66 00 
    37)        25.1  Rx         0085  8  60 0B 00 00 00 55 31 05 
    38)        25.4  Rx         00A9  8  88 0B 00 00 00 00 00 00 
    39)        25.6  Rx         00AE  8  32 DC BE 03 00 00 68 00 
    40)        25.8  Rx         0110  8  9A 3B E6 05 80 78 00 80 
    41)        27.1  Rx         00A1  8  E7 A0 00 00 00 00 00 00 
    42)        27.4  Rx         00A3  8  77 A0 00 00 00 00 00 00 
    43)        28.4  Rx         003F  8  2A 79 00 00 03 00 FC 5F 
    44)        28.6  Rx         00B1  8  9B 06 FF 00 00 FF 1F 1E 
    45)        28.9  Rx         027D  8  00 40 01 00 00 00 00 00 
    46)        31.8  Rx         0113  8  3C 0B 00 7D 02 00 2F 01 
    47)        33.4  Rx         02B8  8  FF FF FF FF FF 1F 00 00 
    48)        35.1  Rx         01E4  8  00 00 00 00 00 00 00 00 
    49)        35.3  Rx         02CE  2  3F 00 
    50)        35.7  Rx         00D1  8  9E FC DF 00 20 9F FF 64 
    51)        37.1  Rx         00B9  8  DD 41 00 00 00 00 FF 32 
    52)        37.4  Rx         0099  8  EF 11 00 00 00 20 00 20 
    53)        38.5  Rx         00B1  8  35 07 FF 00 00 FF 1F 1E 
    54)        38.7  Rx         0173  8  00 00 00 00 00 00 F0 3F 
    55)        38.9  Rx         0371  8  7B 4B F2 09 3E C5 38 01 
    56)        39.6  Rx         0020  8  05 0D 40 0C C0 00 00 00 
    57)        39.9  Rx         010B  8  00 00 AF 0B 00 9E 3F 00 
    58)        40.1  Rx         0076  8  0E 7A A0 87 DA 3E 00 00 
    59)        40.6  Rx         00B0  8  08 5F BA 8E FE 7F E7 0F 
    60)        41.7  Rx     18EF6303  8  11 01 01 06 01 01 02 00 
    61)        42.0  Rx         009C  8  F9 2F 48 FF 03 14 00 00 
    62)        42.3  Rx     18EF6304  8  03 55 55 55 00 00 00 00 
    63)        42.5  Rx     18EF6305  8  05 06 36 F1 0C 12 00 00 
    64)        45.1  Rx         0085  8  9A 0C 00 00 00 55 31 05 
    65)        45.4  Rx         00A9  8  46 0C 00 00 00 00 00 00 
    66)        45.6  Rx         00AE  8  6A DD BE 03 00 00 68 00 
    67)        45.8  Rx         0110  8  44 3C E6 05 80 78 00 80 
    68)        46.1  Rx         0151  8  60 FF FA 92 00 80 24 C0 
    69)        47.1  Rx         00A1  8  BA A1 00 00 00 00 00 00 
    70)        47.3  Rx         00A3  8  4E A1 00 00 00 00 00 00 
    71)        48.4  Rx         00B1  8  41 08 FF 00 00 FF 1F 1E 
    72)        48.7  Rx         027D  8  00 40 01 00 00 00 00 00 
    73)        48.8  Rx         03CA  2  FF FF 
    74)        50.1  Rx         007F  8  FF 3F FF 1F FF 3F FF 1F 
    75)        51.7  Rx         0113  8  DA 0C 00 7D 02 00 2F 01 
    76)        55.7  Rx         00D1  8  C6 FD DF 00 20 9F FF 64 
    77)        57.1  Rx         00B9  8  E2 42 00 00 00 00 FF 32 
    78)        57.4  Rx         0099  8  F8 12 00 00 00 20 00 20 
    79)        58.4  Rx         00B1  8  0C 09 FF 00 00 FF 1F 1E 
    80)        58.7  Rx         0371  8  6D 4C F2 09 3E C5 38 01 
    81)        59.9  Rx         010B  8  00 00 AF 0B 00 9E 3F 00 
    82)        60.3  Rx         0076  8  0E 7A A0 87 DA 3E 00 00 
    83)        60.6  Rx         00B0  8  08 5F BA 8E FE 7F E7 0F 
    84)        61.8  Rx     18EF6303  8  00 DC 00 DB 00 2D 01 7B 
    85)        62.0  Rx         009C  8  E3 20 48 FF 03 14 00 00 
    86)        62.3  Rx         00D3  8  13 00 D0 07 00 C0 00 00 
    87)        62.6  Rx     18EF6304  8  04 07 00 07 00 00 00 00 
    88)        62.9  Rx     18EF6305  8  00 49 4A 49 00 00 49 02 
    89)        63.4  Rx         02D3  8  7C FF 47 0B 7E 00 60 CF 
    90)        65.1  Rx         0085  8  3D 0D 00 00 00 55 31 05 
    91)        65.4  Rx         00A9  8  8C 0D 00 00 00 00 00 00 
    92)        65.6  Rx         00AE  8  17 DE BE 03 00 00 68 00 
    93)        65.8  Rx         0110  8  4A 3D E6 05 80 78 00 80 
    94)        66.8  Rx         0138  8  00 00 43 47 FC 1F 00 00 
    95)        67.1  Rx         00A1  8  90 A2 00 00 00 00 00 00 
    96)        67.3  Rx         00A3  8  D2 A2 00 00 00 00 00 00 
    97)        68.4  Rx         00B1  8  38 0A FF 00 00 FF 1F 1E 
    98)        68.7  Rx         027D  8  00 40 01 00 00 00 00 00 
    99)        68.9  Rx         02CA  8  FF FF FF 03 00 00 00 00 
   100)        70.2  Rx     0BA40000  8  20 00 00 00 00 00 00 00 
   101)        70.4  Rx         045A  8  97 E3 E5 E8 02 46 05 CB 
   102)        71.7  Rx         02BB  8  46 FF 7F FF CF 20 FF 3E 
   103)        71.9  Rx         0113  8  78 0D 00 7D 02 00 2F 01 
   104)        75.1  Rx         02CB  8  00 00 3D 3C FF 00 00 00 
   105)        75.7  Rx         00D1  8  95 FE DF 00 20 9F FF 64 
   106)        77.1  Rx         00B9  8  F7 43 00 00 00 00 FF 32 
   107)        77.4  Rx         0099  8  8E 13 00 00 00 20 00 20 
   108)        78.4  Rx         00B1  8  05 0B FF 00 00 FF 1F 1E 
   109)        78.7  Rx         0371  8  EF 4D F2 09 3E C5 38 01 
   110)        79.9  Rx         010B  8  00 00 AF 0B 00 9E 3F 00 
   111)        80.1  Rx     04880001  8  0A 5F 00 00 00 00 00 00 
   112)        80.4  Rx         00B0  8  08 5F BA 8E FE 7F E7 0F 
   113)        80.7  Rx         0076  8  0E 7A A0 87 DA 3E 00 00 
   114)        81.8  Rx     18EF6303  8  01 F9 00 00 00 CA 00 03 
   115)        82.0  Rx         009C  8  8D 21 48 FF 03 14 00 00 
   116)        82.3  Rx     18EF6304  8  05 00 00 00 00 00 00 00 
   117)        82.6  Rx     18EF6305  8  01 00 00 00 00 00 00 2D 
   118)        85.1  Rx         0085  8  26 0E 00 00 00 55 31 05 
   119)        85.4  Rx         00A9  8  F8 0E 00 00 00 00 00 00 
   120)        85.6  Rx         00AE  8  11 DF BE 03 00 00 68 00 
   121)        85.9  Rx         0110  8  97 3E E6 05 80 78 00 80 
   122)        86.1  Rx     0BD80000  8  08 00 00 C0 00 80 3F 3E 
   123)        87.1  Rx         00A1  8  2F A3 00 00 00 00 00 00 
   124)        87.3  Rx         00A3  8  75 A3 00 00 00 00 00 00 
   125)        88.4  Rx         00B1  8  D9 0C FF 00 00 FF 1F 1E 
   126)        88.7  Rx         027D  8  00 40 01 00 00 00 00 00 
   127)        91.7  Rx         0113  8  B1 0E 00 7D 02 00 2F 01 
   128)        95.0  Rx         013B  8  A0 02 00 00 00 E3 46 04 
   129)        95.3  Rx         03F2  8  FF 01 00 00 00 00 7A FF 
   130)        95.5  Rx         0493  8  23 00 21 00 DD 05 91 7E 
   131)        95.8  Rx         00D1  8  2D 0F E0 FF 1F 9F FF 64 
   132)        97.1  Rx         00B9  8  20 44 00 00 00 00 FF 32 
   133)        97.4  Rx         0099  8  05 14 00 00 00 20 00 20 
   134)        98.4  Rx         00B1  8  F8 0D FF 00 00 FF 1F 1E 
   135)        98.7  Rx         0371  8  8B 4E F2 09 3E C5 38 01 
   136)        99.9  Rx         010B  8  00 00 AF 0B 00 9E 3F 00 
   137)       100.3  Rx         0076  8  0E 7A A0 87 DA 3E 00 00 
   138)       100.6  Rx         00B0  8  08 5F BA 8E FE 7F E7 0F 
   139)       101.8  Rx     18EF6303  8  02 01 01 F1 00 EC 00 00 
   140)       102.0  Rx         009C  8  DC 22 48 FF 03 14 00 00 
   141)       102.3  Rx     18EF6304  8  06 04 00 08 00 00 00 54 
   142)       102.6  Rx     18EF6305  8  02 00 00 04 00 51 E8 4E 
   143)       105.1  Rx         0085  8  1A 0F 00 00 00 55 31 05 
   144)       105.4  Rx         00A9  8  32 0F 00 00 00 00 00 00 
   145)       105.6  Rx         00AE  8  03 D0 BE 03 00 00 68 00 
   146)       105.9  Rx         0110  8  60 3F E6 05 80 78 00 80 
   147)       106.1  Rx         01BD  8  FF FF FF 1F FF FF FF 1F 
   148)       107.1  Rx         00A1  8  73 A4 00 00 00 00 00 00 
   149)       107.4  Rx         00A3  8  3B A4 00 00 00 00 00 00 
   150)       108.4  Rx         00B1  8  7D 0E FF 00 00 FF 1F 1E 
   151)       108.7  Rx         027D  8  00 40 01 00 00 00 00 00 
   152)       108.9  Rx     0BD40000  8  04 00 00 C0 FF 01 00 80 
   153)       110.6  Rx         0233  8  02 FF 00 00 00 00 00 00 
   154)       111.7  Rx         0113  8  14 0F 00 7D 02 00 2F 01 
   155)       111.9  Rx         0134  8  06 04 30 55 F4 21 00 00 
   156)       115.2  Rx         02CC  8  85 37 0E 00 00 64 48 00 
   157)       115.7  Rx         00D1  8  83 00 E0 00 20 9F FF 64 
   158)       116.8  Rx         0136  8  00 07 00 04 1C 00 00 00 
   159)       117.1  Rx         00B9  8  CB 45 00 00 00 00 FF 32 
   160)       117.4  Rx         0099  8  E6 15 00 00 00 20 00 20 
   161)       118.5  Rx         00B1  8  81 0F FF 00 00 FF 1F 1E 
   162)       118.7  Rx         0170  8  FF FF 00 00 00 00 00 00 
   163)       118.9  Rx         0371  8  09 4F F2 09 3E C5 38 01 
   164)       121.8  Rx     18EF6303  8  03 00 00 40 1F 01 02 58 
   165)       122.0  Rx         009C  8  C7 23 48 FF 03 14 00 00 
   166)       122.2  Rx         013C  8  FF FF 00 01 8E 10 02 01 
   167)       122.5  Rx     18EF6304  8  07 D8 05 8C 16 DC 0C 00 
   168)       122.8  Rx     18EF6305  8  03 01 00 00 00 00 00 0C 
   169)       125.0  Rx         010B  8  00 00 AF 0B 00 9E 3F 00 
   170)       125.2  Rx         0085  8  90 00 00 00 00 55 31 05 
   171)       125.5  Rx         0076  8  0F 7A A0 87 DA 3E 00 00 
   172)       125.7  Rx         00A9  8  EA 00 00 00 00 00 00 00 
   173)       126.0  Rx         00AE  8  90 D1 BE 03 00 00 68 00 
   174)       126.2  Rx         00B0  8  08 5F BA 8E FE 7F E7 0F 
   175)       126.4  Rx         0110  8  A4 30 E6 05 80 78 00 80 
   176)       126.7  Rx         0448  8  82 0E 00 3B 38 3D 3E 3B 
   177)       127.1  Rx         00A1  8  E2 A5 00 00 00 00 00 00 
   178)       127.4  Rx         00A3  8  1C A5 00 00 00 00 00 00 
   179)       128.4  Rx         00B1  8  A3 00 FF 00 00 FF 1F 1E 
   180)       128.6  Rx         027D  8  00 40 01 00 00 00 00 00 
   181)       131.8  Rx         0113  8  84 00 00 7D 02 00 2F 01 
   182)       133.4  Rx         026A  8  9A 01 DE E2 FE FE FF FF 
   183)       133.6  Rx         02B8  8  FF FF FF FF FF 1F 00 00 
   184)       135.1  Rx         01E4  8  00 00 00 00 00 00 00 00 
   185)       135.7  Rx         00D1  8  87 01 E0 00 20 9F FF 64 
   186)       137.1  Rx         00B9  8  AA 46 00 00 00 00 FF 32 
   187)       137.4  Rx         0099  8  0F 16 00 00 00 20 00 20 
   188)       138.5  Rx         00B1  8  08 01 FF 00 00 FF 1F 1E 
   189)       138.7  Rx         0173  8  00 00 00 00 00 00 F0 3F 
   190)       138.9  Rx         0371  8  2A 40 F2 09 3E C5 38 01 
   191)       139.6  Rx         0020  8  5C 0E 40 0C C0 00 00 00 
   192)       141.7  Rx     18EF6303  8  04 13 11 00 13 1D 20 00 
   193)       142.0  Rx         009C  8  2E 24 48 FF 03 14 00 00 
   194)       142.3  Rx     18EF6304  8  00 00 00 00 00 00 00 64 
   195)       142.5  Rx     18EF6305  8  04 03 00 03 00 03 00 00 
   196)       145.0  Rx         010B  8  00 00 AF 0B 00 9E 3F 00 
   197)       145.2  Rx         0085  8  4A 01 00 00 00 55 31 05 
   198)       145.5  Rx         0076  8  0F 7A A0 87 DA 3E 00 00 
   199)       145.8  Rx         00A9  8  53 01 00 00 00 00 00 00 
   200)       146.0  Rx         00AE  8  78 D2 BE 03 00 00 68 00 
   201)       146.2  Rx         00B0  8  08 5F BA 8E FE 7F E7 0F 
   202)       146.4  Rx         0110  8  B1 31 E6 05 80 78 00 80 
   203)       146.7  Rx         0151  8  60 FF FA 92 00 80 FB C1 
   204)       146.9  Rx         0199  8  9E A2 C8 FF F1 7F 00 80 
   205)       147.2  Rx         00A1  8  6C A6 00 00 00 00 00 00 
   206)       147.4  Rx         00A3  8  95 A6 00 00 00 00 00 00 
   207)       148.4  Rx         00B1  8  1F 02 FF 00 00 FF 1F 1E 
   208)       148.7  Rx         027D  8  00 40 01 00 00 00 00 00 
   209)       150.1  Rx         007F  8  FF 3F FF 1F FF 3F FF 1F 
   210)       150.7  Rx         0161  8  4F 49 01 00 00 00 FF 01 
   211)       151.7  Rx         0113  8  63 01 00 7D 02 00 2F 01 
   212)       155.1  Rx         0041  8  FC 9F 00 00 30 02 80 FF 
   213)       155.7  Rx         00D1  8  61 F2 DF 01 20 9F FF 64 
   214)       157.1  Rx         00B9  8  0A 47 00 00 00 00 FF 32 
   215)       157.4  Rx         0099  8  0A 17 00 00 00 20 00 20 
   216)       158.4  Rx         00B1  8  B4 03 FF 00 00 FF 1F 1E 
   217)       158.7  Rx         0371  8  4B 41 F2 09 3E C5 38 01 
   218)       158.9  Rx         03CC  8  00 00 00 00 00 00 00 3E 
   219)       161.8  Rx     18EF6303  8  05 00 00 00 00 00 00 01 
   220)       162.0  Rx         009C  8  6A 25 48 FF 03 14 00 00 
   221)       162.3  Rx         00D3  8  13 00 D0 07 00 C0 00 00 
   222)       162.6  Rx     18EF6304  8  01 00 00 00 00 00 00 1D 
   223)       162.8  Rx     18EF6305  8  05 06 36 F0 0C 12 00 00 
   224)       163.4  Rx         02D3  8  7C FF 47 0B 7E 00 80 DF 
   225)       165.0  Rx         010B  8  00 00 AF 0B 00 9E 3F 00 
   226)       165.3  Rx         0085  8  8C 02 00 00 00 55 31 05 
   227)       165.5  Rx         00A9  8  51 02 00 00 00 00 00 00 
   228)       165.7  Rx         00AE  8  53 D3 BE 03 00 00 68 00 
   229)       166.0  Rx         00B0  8  08 5F BA 8E FE 7F E7 0F 
   230)       166.2  Rx         0110  8  D9 32 E6 05 80 78 00 80 
   231)       166.5  Rx         02D2  8  FF 0F 40 00 00 00 00 00 
   232)       166.7  Rx         02FA  8  FF 00 78 00 80 E0 00 1C 
   233)       166.9  Rx         0076  8  0F 7A A0 87 DA 3E 00 00 
   234)       167.2  Rx         00A1  8  A1 A7 00 00 00 00 00 00 
   235)       167.4  Rx         00A3  8  4A A7 00 00 00 00 00 00 
   236)       167.6  Rx         0138  8  00 00 43 47 FC 1F 00 00 
   237)       168.4  Rx         00B1  8  E2 04 FF 00 00 FF 1F 1E 
   238)       168.7  Rx         027D  8  00 40 01 00 00 00 00 00 
   239)       168.9  Rx         02CA  8  FF FF FF 03 00 00 00 00 
   240)       170.2  Rx     0BA40000  8  20 00 00 00 00 00 00 00 
   241)       171.7  Rx         02BB  8  46 FF 7F FF CF 20 FF 3D 
   242)       172.0  Rx         0113  8  86 02 00 7D 02 00 2F 01 
   243)       175.1  Rx         02CB  8  00 00 3D 3C FF 00 00 00 
   244)       175.7  Rx         00D1  8  D7 F3 DF 00 20 9F FF 64 
   245)       177.1  Rx         00B9  8  39 48 00 00 00 00 FF 32 
   246)       177.4  Rx         0099  8  D5 18 00 00 00 20 00 20 
   247)       178.4  Rx         00B1  8  AF 05 FF 00 00 FF 1F 1E 
   248)       178.7  Rx         0371  8  01 42 F2 09 3E C5 38 01 
   249)       180.1  Rx     04880001  8  0A 5F 00 00 00 00 00 00 
   250)       181.7  Rx     18EF6303  8  06 BC 02 BC 02 00 00 00 
   251)       182.0  Rx         009C  8  64 26 48 FF 03 14 00 00 
   252)       182.2  Rx     18EF6304  8  02 00 00 4A 4A 4A 80 0C 
   253)       182.5  Rx     18EF6305  8  00 4A 49 49 00 00 49 02 
   254)       185.0  Rx         010B  8  00 00 AF 0B 00 9E 3F 00 
   255)       185.2  Rx         0085  8  0C 03 00 00 00 55 31 05 
   256)       185.5  Rx         0076  8  0F 7A A0 87 DA 3E 00 00 
   257)       185.7  Rx         00A9  8  0E 03 00 00 00 00 00 00 
   258)       185.9  Rx         00AE  8  DC D4 BE 03 00 00 68 00 
   259)       186.2  Rx         00B0  8  08 5F BA 8E FE 7F E7 0F 
   260)       186.4  Rx         0110  8  70 33 E6 05 80 78 00 80 
   261)       187.1  Rx         00A1  8  38 A8 00 00 00 00 00 00 
   262)       187.4  Rx         00A3  8  38 A8 00 00 00 00 00 00 
   263)       188.4  Rx         00B1  8  9B 06 FF 00 00 FF 1F 1E 
   264)       188.5  Rx         0068  1  02 
   265)       188.8  Rx         027D  8  00 40 01 00 00 00 00 00 
   266)       191.7  Rx         0113  8  87 03 00 7D 02 00 2F 01 
   267)       195.0  Rx         013B  8  38 03 00 00 00 E3 46 04 
   268)       195.3  Rx         0493  8  23 00 21 00 DD 05 91 7E 
   269)       195.7  Rx         00D1  8  90 F4 DF 00 20 9F FF 64 
   270)       197.1  Rx         00B9  8  CE 49 00 00 00 00 FF 32 
   271)       197.3  Rx         0099  8  A3 19 00 00 00 20 00 20 
   272)       198.5  Rx         00B1  8  35 07 FF 00 00 FF 1F 1E 
   273)       198.7  Rx     0BE00000  8  CD 0F FE 3F 08 00 00 00 
   274)       199.0  Rx         0371  8  F3 43 F2 09 3E C5 38 01 
   275)       201.8  Rx     18EF6303  8  07 00 00 00 AC 0D 80 0C 
   276)       202.0  Rx         009C  8  B6 27 48 FF 03 14 00 00 
   277)       202.3  Rx     18EF6304  8  03 55 55 55 00 00 00 00 
   278)       202.6  Rx     18EF6305  8  01 00 00 00 00 00 00 07 
   279)       205.0  Rx         010B  8  00 00 AF 0B 00 9E 3F 00 
   280)       205.2  Rx         0085  8  FF 04 00 00 00 55 31 05 
   281)       205.5  Rx         00A9  8  B3 04 00 00 00 00 00 00 
   282)       205.7  Rx         00AE  8  40 D5 BE 03 00 00 68 00 
   283)       206.0  Rx         00B0  8  08 5F BA 8E FE 7F E7 0F 
   284)       206.2  Rx         0110  8  09 34 E6 05 80 78 00 80 
   285)       206.5  Rx         01BD  8  FF FF FF 1F FF FF FF 1F 
   286)       206.7  Rx         0076  8  0F 7A A0 87 DA 3E 00 00 
   287)       207.1  Rx         00A1  8  3C A9 00 00 00 00 00 00 
   288)       207.3  Rx         00A3  8  79 A9 00 00 00 00 00 00 
   289)       208.4  Rx         00B1  8  41 08 FF 00 00 FF 1F 1E 
   290)       208.6  Rx         027D  8  00 40 01 00 00 00 00 00 
   291)       210.7  Rx         0233  8  02 FF 00 00 00 00 00 00 
   292)       211.7  Rx         0113  8  AC 04 00 7D 02 00 2F 01 
   293)       212.0  Rx         0134  8  06 04 30 55 F4 21 00 00 
   294)       214.6  Rx         046B  8  00 00 3C 50 50 6D 4C 10 
   295)       215.7  Rx         00D1  8  A2 F5 DF 00 20 9F FF 64 
   296)       216.8  Rx         0136  8  00 07 00 04 1C 00 00 00 
   297)       217.1  Rx         00B9  8  56 4A 00 00 00 00 FF 32 
   298)       217.4  Rx         0099  8  39 1A 00 00 00 20 00 20 
   299)       218.5  Rx         00B1  8  0C 09 FF 00 00 FF 1F 1E 
   300)       218.7  Rx         0170  8  FF FF 00 00 00 00 00 00 
   301)       218.9  Rx         0371  8  06 44 F2 09 3E C5 38 01 
   302)       221.8  Rx     18EF6303  8  08 00 00 00 00 64 64 64 
   303)       222.0  Rx         009C  8  C6 28 48 FF 03 14 00 00 
   304)       222.3  Rx         013C  8  FF FF 00 01 91 11 02 01 
   305)       222.6  Rx     18EF6304  8  04 07 00 07 00 00 00 00 
   306)       222.8  Rx     18EF6305  8  02 01 00 04 00 51 E8 4E 
   307)       223.4  Rx         0489  8  00 94 39 80 43 79 66 00 
   308)       225.0  Rx         010B  8  00 00 AF 0B 00 9E 3F 00 
   309)       225.2  Rx         0085  8  B3 05 00 00 00 55 31 05 
   310)       225.5  Rx         0076  8  0F 8A A0 87 DA 3E 00 00 
   311)       225.7  Rx         00A9  8  0A 05 00 00 00 00 00 00 
   312)       226.0  Rx         00AE  8  FD D6 BE 03 00 00 68 00 
   313)       226.2  Rx         00B0  8  08 5F BA 8E FE 7F E7 0F 
   314)       226.4  Rx         0110  8  1C 35 E6 05 80 78 00 80 
   315)       227.1  Rx         00A1  8  4A AA 00 00 00 00 00 00 
   316)       227.3  Rx         00A3  8  6E AA 00 00 00 00 00 00 
   317)       228.4  Rx         00B1  8  38 0A FF 00 00 FF 1F 1E 
   318)       228.7  Rx         027D  8  00 40 01 00 00 00 00 00 
   319)       229.0  Rx     0BE40000  8  44 0F FE 3F 00 00 00 00 
   320)       231.8  Rx         0113  8  F7 05 00 7D 02 00 2F 01 
   321)       233.4  Rx         02B8  8  FF FF FF FF FF 1F 00 00 
   322)       235.1  Rx         01E4  8  00 00 00 00 00 00 00 00 
   323)       235.7  Rx         00D1  8  55 F6 DF 01 20 9F FF 64 
   324)       237.1  Rx         00B9  8  A1 4B 00 00 00 00 FF 32 
   325)       237.4  Rx         0099  8  4F 1B 00 00 00 20 00 20 
   326)       238.4  Rx         00B1  8  05 0B FF 00 00 FF 1F 1E 
   327)       238.7  Rx         0173  8  00 00 00 00 00 00 F0 3F 
   328)       238.9  Rx         0371  8  67 45 F2 09 3E C5 38 01 
   329)       239.6  Rx         0020  8  1D 0F 40 0C C0 00 00 00 
   330)       241.7  Rx     18EF6303  8  09 E3 29 01 88 13 00 00 
   331)       242.0  Rx         009C  8  EB 29 48 FF 03 14 00 00 
   332)       242.3  Rx     18EF6304  8  05 00 00 00 00 00 00 00 
   333)       242.5  Rx     18EF6305  8  03 00 00 00 00 00 00 0C 
   334)       245.0  Rx         010B  8  00 00 AF 0B 00 9E 3F 00 
   335)       245.3  Rx         0085  8  1D 06 00 00 00 55 31 05 
   336)       245.5  Rx         0076  8  0F 8A A0 87 DA 3E 00 00 
   337)       245.8  Rx         00A9  8  4A 06 00 00 00 00 00 00 
   338)       246.0  Rx         00AE  8  E6 D7 BE 03 00 00 68 00 
   339)       246.2  Rx         00B0  8  08 5F BA 8E FE 7F E7 0F 
   340)       246.5  Rx         0110  8  23 36 E6 05 80 78 00 80 
   341)       246.7  Rx         0151  8  60 FF FA 92 00 80 C6 C2 
   342)       247.1  Rx         00A1  8  D1 AB 00 00 00 00 00 00 
   343)       247.3  Rx         00A3  8  81 AB 00 00 00 00 00 00 
   344)       248.4  Rx         00B1  8  D9 0C FF 00 00 FF 1F 1E 
   345)       248.7  Rx         027D  8  00 40 01 00 00 00 00 00 
   346)       250.1  Rx         007F  8  FF 3F FF 1F FF 3F FF 1F 
   347)       251.7  Rx         0113  8  4D 06 00 7D 02 00 2F 01 
   348)       255.7  Rx         00D1  8  EF F7 DF 01 20 9F FF 64 
   349)       257.1  Rx         00B9  8  C3 4C 00 00 00 00 FF 32 
   350)       257.4  Rx         0099  8  22 1C 00 00 00 20 00 20 
   351)       258.4  Rx         00B1  8  F8 0D FF 00 00 FF 1F 1E 
   352)       258.7  Rx         0371  8  2D 46 F2 09 3E C5 38 01 
   353)       261.8  Rx     18EF6303  8  0A 80 0C 00 00 00 00 20 
   354)       262.0  Rx         009C  8  44 2A 48 FF 03 14 00 00 
   355)       262.3  Rx         00D3  8  13 00 D0 07 00 C0 00 00 
   356)       262.6  Rx     18EF6304  8  06 04 00 08 00 00 00 54 
   357)       262.8  Rx     18EF6305  8  04 03 00 03 00 03 00 00 
   358)       263.3  Rx         02D3  8  7C FF 47 0B 7E 00 40 CF 
   359)       265.0  Rx         010B  8  00 00 AF 0B 00 9E 3F 00 
   360)       265.2  Rx         0085  8  28 07 00 00 00 55 31 05 
   361)       265.5  Rx         0076  8  0F 7A A0 87 DA 3E 00 00 
   362)       265.7  Rx         00A9  8  80 07 00 00 00 00 00 00 
   363)       265.9  Rx         00AE  8  98 D8 BE 03 00 00 68 00 
   364)       266.2  Rx         00B0  8  08 5F BA 8E FE 7F E7 0F 
   365)       266.5  Rx         0110  8  DD 37 E6 05 80 78 00 80 
   366)       266.7  Rx         043C  8  00 00 03 00 00 00 00 00 
   367)       266.9  Rx         0138  8  00 00 43 47 FC 1F 00 00 
   368)       267.2  Rx         00A1  8  37 AC 00 00 00 00 00 00 
   369)       267.4  Rx         00A3  8  7F AC 00 00 00 00 00 00 
   370)       268.4  Rx         00B1  8  7D 0E FF 00 00 FF 1F 1E 
   371)       268.7  Rx         027D  8  00 40 01 00 00 00 00 00 
   372)       268.9  Rx         02CA  8  FF FF FF 03 00 00 00 00 
   373)       270.2  Rx     0BA40000  8  20 00 00 00 00 00 00 00 
   374)       270.4  Rx         045A  8  97 E3 E5 E8 02 46 05 CB 
   375)       271.8  Rx         02BB  8  46 FF 7F FF CF 20 FF 3D 
   376)       272.0  Rx         0113  8  44 07 00 7D 02 00 2F 01 
   377)       275.2  Rx         02CB  8  00 00 3D 3C FF 00 00 00 
   378)       275.7  Rx         00D1  8  C8 F8 DF FF 1F 9F FF 64 
   379)       277.1  Rx         00B9  8  63 4D 00 00 00 00 FF 32 
   380)       277.4  Rx         0099  8  27 1D 00 00 00 20 00 20 
   381)       278.4  Rx         00B1  8  81 0F FF 00 00 FF 1F 1E 
   382)       278.7  Rx         0371  8  6A 47 F2 09 3E C5 38 01 
   383)       280.1  Rx     04880001  8  0A 5F 00 00 00 00 00 00 
   384)       281.7  Rx     18EF6303  8  0B 00 00 00 00 00 00 06 
   385)       282.0  Rx         009C  8  BC 2B 48 FF 03 14 00 00 
   386)       282.3  Rx     18EF6304  8  07 D7 05 81 16 DA 0C 00 
   387)       282.5  Rx     18EF6305  8  05 06 36 F0 0C 12 00 00 
   388)       285.0  Rx         010B  8  00 00 AF 0B 00 9E 3F 00 
   389)       285.2  Rx         0085  8  D4 08 00 00 00 55 31 05 
   390)       285.5  Rx         0076  8  0F 8A A0 87 DA 3E 00 00 
   391)       285.7  Rx         00A9  8  1F 08 00 00 00 00 00 00 
   392)       286.0  Rx         00AE  8  CB D9 BE 03 00 00 68 00 
   393)       286.2  Rx         00B0  8  08 5F BA 8E FE 7F E7 0F 
   394)       286.4  Rx         0110  8  0C 38 E6 05 80 78 00 80 
   395)       287.1  Rx         00A1  8  1C AD 00 00 00 00 00 00 
   396)       287.4  Rx         00A3  8  46 AD 00 00 00 00 00 00 
   397)       288.4  Rx         00B1  8  A3 00 FF 00 00 FF 1F 1E 
   398)       288.6  Rx         027D  8  00 40 01 00 00 00 00 00 
   399)       291.7  Rx         0113  8  10 08 00 7D 02 00 2F 01 
   400)       295.0  Rx         013B  8  ED 04 00 00 00 E3 46 04 
   401)       295.3  Rx         03F2  8  FF 01 00 00 00 00 7A FF 
   402)       295.5  Rx         0493  8  23 00 21 00 DD 05 91 7E 
   403)       295.7  Rx         00D1  8  C1 F9 DF 00 20 9F FF 64 
   404)       297.1  Rx         00B9  8  02 4E 00 00 00 00 FF 32 
   405)       297.4  Rx         0099  8  CE 1E 00 00 00 20 00 20 
   406)       298.5  Rx         00B1  8  08 01 FF 00 00 FF 1F 1E 
   407)       298.7  Rx         0371  8  CE 48 F2 09 3E C5 38 01 
   408)       301.8  Rx     18EF6303  8  0C 57 30 D8 00 D8 00 06 
   409)       302.0  Rx         009C  8  73 2C 48 FF 03 14 00 00 
   410)       302.3  Rx     18EF6304  8  00 00 00 00 00 01 00 64 
   411)       302.6  Rx     18EF6305  8  00 48 4A 49 00 00 49 02 
   412)       305.0  Rx         010B  8  00 00 AF 0B 00 9E 3F 00 
   413)       305.2  Rx         0085  8  AC 09 00 00 00 55 31 05 
   414)       305.5  Rx         00A9  8  D5 09 00 00 00 00 00 00 
   415)       305.7  Rx         00AE  8  05 DA BE 03 00 00 68 00 
   416)       306.0  Rx         00B0  8  08 5F BA 8E FE 7F E7 0F 
   417)       306.2  Rx         0110  8  E7 39 E6 05 80 78 00 80 
   418)       306.4  Rx         01BD  8  FF FF FF 1F FF FF FF 1F 
   419)       306.7  Rx         0076  8  0F 8A A0 87 DA 3E 00 00 
   420)       307.1  Rx         00A1  8  6B AE 00 00 00 00 00 00 
   421)       307.3  Rx         00A3  8  F4 AE 00 00 00 00 00 00 
   422)       308.4  Rx         00B1  8  1F 02 FF 00 00 FF 1F 1E 
   423)       308.7  Rx         027D  8  00 40 01 00 00 00 00 00 
   424)       310.7  Rx         0233  8  02 FF 00 00 00 00 00 00 
   425)       311.7  Rx         0113  8  4B 09 00 7D 02 00 2F 01 
   426)       312.0  Rx         0134  8  06 04 30 55 F4 21 00 00 
   427)       315.2  Rx         02CC  8  85 37 0E 00 00 64 48 00 
   428)       315.7  Rx         00D1  8  57 FA DF 00 20 9F FF 64 
   429)       316.8  Rx         0136  8  00 07 00 04 1C 00 00 00 
   430)       317.1  Rx         00B9  8  7F 4F 00 00 00 00 FF 32 
   431)       317.4  Rx         0099  8  A4 1F 00 00 00 20 00 20 
   432)       318.4  Rx         00B1  8  B4 03 FF 00 00 FF 1F 1E 
   433)       318.7  Rx         0170  8  FF FF 00 00 00 00 00 00 
   434)       318.9  Rx         0371  8  AF 49 F2 09 3E C5 38 01 
   435)       320.2  Rx         03C8  8  FF FF FF FF FF FF FF 8F 
   436)       321.8  Rx     18EF6303  8  0D 00 00 40 1F AC 0D 00 
   437)       322.0  Rx         009C  8  AC 2D 48 FF 03 14 00 00 
   438)       322.3  Rx         013C  8  FF FF 00 01 70 12 02 01 
   439)       322.6  Rx     18EF6304  8  01 00 00 00 00 00 00 1F 
   440)       322.9  Rx     18EF6305  8  01 00 00 00 00 00 00 13 
   441)       325.0  Rx         010B  8  00 00 AF 0B 00 9E 3F 00 
   442)       325.3  Rx         0085  8  02 0A 00 00 00 55 31 05 
   443)       325.5  Rx         0076  8  0E 7A A0 87 DA 3E 00 00 
   444)       325.7  Rx         00A9  8  42 0A 00 00 00 00 00 00 
   445)       326.0  Rx         00AE  8  B8 DB BE 03 00 00 68 00 
   446)       326.2  Rx         00B0  8  08 5F BA 8E FE 7F E7 0F 
   447)       326.4  Rx         0110  8  3A 3A E6 05 80 78 00 80 
   448)       327.1  Rx         00A1  8  89 AF 00 00 00 00 00 00 
   449)       327.3  Rx         00A3  8  7D AF 00 00 00 00 00 00 
   450)       328.4  Rx         00B1  8  E2 04 FF 00 00 FF 1F 1E 
   451)       328.7  Rx         027D  8  00 40 01 00 00 00 00 00 
   452)       331.9  Rx         0113  8  81 0A 00 7D 02 00 2F 01 
   453)       333.4  Rx         026A  8  9A 01 DE E2 FE FE FF FF 
   454)       333.6  Rx         02B8  8  FF FF FF FF FF 1F 00 00 
   455)       335.1  Rx         01E4  8  00 00 00 00 00 00 00 00 
   456)       335.7  Rx         00D1  8  ED FB DF 00 20 9F FF 64 
   457)       337.1  Rx         00B9  8  8D 40 00 00 00 00 FF 32 
   458)       337.4  Rx         0099  8  EA 10 00 00 00 20 00 20 
   459)       338.4  Rx         00B1  8  AF 05 FF 00 00 FF 1F 1E 
   460)       338.7  Rx         0173  8  00 00 00 00 00 00 F0 3F 
   461)       338.9  Rx         0371  8  E5 4A F2 09 3E C5 38 01 
   462)       339.6  Rx         0020  8  EE 00 40 0C C0 00 00 00 
   463)       341.7  Rx     18EF6303  8  0E 54 0D AC 0D 40 1F 00 
   464)       342.0  Rx         009C  8  AA 2E 48 FF 03 14 00 00 
   465)       342.2  Rx     18EF6304  8  02 00 00 4A 4A 4A 1C 0C 
   466)       342.5  Rx     18EF6305  8  02 01 00 04 00 51 E8 4E 
   467)       345.1  Rx         010B  8  00 00 AF 0B 00 9E 3F 00 
   468)       345.3  Rx         0085  8  60 0B 00 00 00 55 31 05 
   469)       345.5  Rx         0076  8  0F 8A A0 87 DA 3E 00 00 
   470)       345.8  Rx         00A9  8  88 0B 00 00 00 00 00 00 
   471)       346.0  Rx         00AE  8  32 DC BE 03 00 00 68 00 
   472)       346.2  Rx         00B0  8  08 5F BA 8E FE 7F E7 0F 
   473)       346.5  Rx         0110  8  9A 3B E6 05 80 78 00 80 
   474)       346.7  Rx         0151  8  60 FF FA 92 00 80 B7 C3 
   475)       347.1  Rx         00A1  8  E7 A0 00 00 00 00 00 00 
   476)       347.4  Rx         00A3  8  77 A0 00 00 00 00 00 00 
   477)       348.4  Rx         00B1  8  9B 06 FF 00 00 FF 1F 1E 
   478)       348.7  Rx         027D  8  00 40 01 00 00 00 00 00 
   479)       350.1  Rx         007F  8  FF 3F FF 1F FF 3F FF 1F 
   480)       350.7  Rx         0161  8  4F 49 01 00 00 00 FF 01 
   481)       351.7  Rx         0113  8  3C 0B 00 7D 02 00 2F 01 
   482)       355.7  Rx         00D1  8  9E FC DF 00 20 9F FF 64 
   483)       357.1  Rx         00B9  8  DD 41 00 00 00 00 FF 32 
   484)       357.4  Rx         0099  8  EF 11 00 00 00 20 00 20 
   485)       358.4  Rx         00B1  8  35 07 FF 00 00 FF 1F 1E 
   486)       358.7  Rx         0371  8  7B 4B F2 09 3E C5 38 01 
   487)       358.9  Rx         03CC  8  00 00 00 00 00 00 00 3E 
   488)       361.8  Rx         009C  8  F9 2F 48 FF 03 14 00 00 
   489)       362.0  Rx         00D3  8  13 00 D0 07 00 C0 00 00 
   490)       362.3  Rx     18EF6303  8  0F 00 41 0D 49 0B 01 70 
   491)       362.5  Rx     18EF6304  8  03 55 55 55 00 00 00 00 
   492)       362.8  Rx     18EF6305  8  03 01 00 00 00 00 00 0C 
   493)       363.4  Rx         02D3  8  7C FF 47 0B 7E 00 80 DF 
   494)       365.0  Rx         010B  8  00 00 AF 0B 00 9E 3F 00 
   495)       365.3  Rx         0085  8  9A 0C 00 00 00 55 31 05 
   496)       365.5  Rx         0076  8  0F 8A A0 87 DA 3E 00 00 
   497)       365.7  Rx         00A9  8  46 0C 00 00 00 00 00 00 
   498)       366.0  Rx         00AE  8  6A DD BE 03 00 00 68 00 
   499)       366.2  Rx         00B0  8  08 5F BA 8E FE 7F E7 0F 
   500)       366.5  Rx         0110  8  44 3C E6 05 80 78 00 80 
   501)       366.7  Rx         02FA  8  FF 00 78 00 80 E0 00 1C 
   502)       366.9  Rx         0138  8  00 00 43 47 FC 1F 00 00 
   503)       367.2  Rx         00A1  8  BA A1 00 00 00 00 00 00 
   504)       367.4  Rx         00A3  8  4E A1 00 00 00 00 00 00 
   505)       368.4  Rx         00B1  8  41 08 FF 00 00 FF 1F 1E 
   506)       368.6  Rx         027D  8  00 40 01 00 00 00 00 00 
   507)       368.9  Rx         02CA  8  FF FF FF 03 00 00 00 00 
   508)       370.2  Rx     0BA40000  8  20 00 00 00 00 00 00 00 
   509)       371.8  Rx         02BB  8  46 FF 7F FF CF 20 FF 3E 
   510)       372.0  Rx         0113  8  DA 0C 00 7D 02 00 2F 01 
   511)       375.1  Rx         02CB  8  00 00 3D 3C FF 00 00 00 
   512)       375.7  Rx         00D1  8  C6 FD DF 00 20 9F FF 64 
   513)       377.1  Rx         00B9  8  E2 42 00 00 00 00 FF 32 
   514)       377.3  Rx         0099  8  F8 12 00 00 00 20 00 20 
   515)       378.4  Rx         00B1  8  0C 09 FF 00 00 FF 1F 1E 
   516)       378.7  Rx         0371  8  6D 4C F2 09 3E C5 38 01 
   517)       380.1  Rx     04880001  8  0A 5F 00 00 00 00 00 00 
   518)       381.7  Rx     18EF6303  8  10 27 01 F9 00 B2 04 08 
   519)       382.0  Rx         009C  8  E3 20 48 FF 03 14 00 00 
   520)       382.3  Rx     18EF6304  8  04 06 00 07 00 00 00 00 
   521)       382.6  Rx     18EF6305  8  04 03 00 03 00 02 00 00 
   522)       385.0  Rx         010B  8  00 00 AF 0B 00 9E 3F 00 
   523)       385.2  Rx         0085  8  3D 0D 00 00 00 55 31 05 
   524)       385.5  Rx         0076  8  0F 8A A0 87 DA 3E 00 00 
   525)       385.7  Rx         00A9  8  8C 0D 00 00 00 00 00 00 
   526)       386.0  Rx         00AE  8  17 DE BE 03 00 00 68 00 
   527)       386.2  Rx         00B0  8  08 5F BA 8E FE 7F E7 0F 
   528)       386.4  Rx         0110  8  4A 3D E6 05 80 78 00 80 
   529)       387.1  Rx         00A1  8  90 A2 00 00 00 00 00 00 
   530)       387.3  Rx         00A3  8  D2 A2 00 00 00 00 00 00 
   531)       388.4  Rx         00B1  8  38 0A FF 00 00 FF 1F 1E 
   532)       388.5  Rx         0068  1  02 
   533)       388.8  Rx         027D  8  00 40 01 00 00 00 00 00 
   534)       391.7  Rx         0113  8  78 0D 00 7D 02 00 2F 01 
   535)       395.1  Rx         013B  8  97 05 00 00 00 E3 46 04 
   536)       395.3  Rx         0493  8  23 00 21 00 DD 05 91 7E 
   537)       395.7  Rx         00D1  8  95 FE DF 00 20 9F FF 64 
   538)       397.1  Rx         00B9  8  F7 43 00 00 00 00 FF 32 
   539)       397.4  Rx         0099  8  8E 13 00 00 00 20 00 20 
   540)       398.5  Rx         00B1  8  05 0B FF 00 00 FF 1F 1E 
   541)       398.7  Rx         0371  8  EF 4D F2 09 3E C5 38 01 
   542)       401.8  Rx     18EF6303  8  11 01 01 06 01 01 02 00 
   543)       402.0  Rx         009C  8  8D 21 48 FF 03 14 00 00 
   544)       402.3  Rx     18EF6304  8  05 00 00 00 00 00 00 00 
   545)       402.6  Rx     18EF6305  8  05 06 36 F0 0C 12 00 00 
   546)       405.0  Rx         010B  8  00 00 AF 0B 00 9E 3F 00 
   547)       405.3  Rx         0085  8  26 0E 00 00 00 55 31 05 
   548)       405.5  Rx         00A9  8  F8 0E 00 00 00 00 00 00 
   549)       405.7  Rx         00AE  8  11 DF BE 03 00 00 68 00 
   550)       406.0  Rx         00B0  8  08 5F BA 8E FE 7F E7 0F 
   551)       406.2  Rx         0110  8  97 3E E6 05 80 78 00 80 
   552)       406.4  Rx         01BD  8  FF FF FF 1F FF FF FF 1F 
   553)       406.7  Rx         0076  8  0F 8A A0 87 DA 3E 00 00 
   554)       407.1  Rx         00A1  8  2F A3 00 00 00 00 00 00 
   555)       407.3  Rx         00A3  8  75 A3 00 00 00 00 00 00 
   556)       408.4  Rx         00B1  8  D9 0C FF 00 00 FF 1F 1E 
   557)       408.7  Rx         027D  8  00 40 01 00 00 00 00 00 
   558)       410.7  Rx         0233  8  02 FF 00 00 00 00 00 00 
   559)       411.7  Rx         0113  8  B1 0E 00 7D 02 00 2F 01 
   560)       412.0  Rx         0134  8  06 04 30 55 F4 21 00 00 
   561)       414.6  Rx         046B  8  00 00 3C 50 50 6D 4C 10 
   562)       415.7  Rx         00D1  8  E2 FF DF 00 20 9F FF 64 
   563)       416.8  Rx         0136  8  00 07 00 04 1C 00 00 00 
   564)       417.2  Rx         00B9  8  20 44 00 00 00 00 FF 32 
   565)       417.4  Rx         0099  8  05 14 00 00 00 20 00 20 
   566)       418.4  Rx         00B1  8  F8 0D FF 00 00 FF 1F 1E 
   567)       418.7  Rx         0170  8  FF FF 00 00 00 00 00 00 
   568)       418.9  Rx         0371  8  8B 4E F2 09 3E C5 38 01 
   569)       421.8  Rx     18EF6303  8  00 DC 00 DB 00 2D 01 7B 
   570)       422.0  Rx         009C  8  DC 22 48 FF 03 14 00 00 
   571)       422.3  Rx         013C  8  FF FF 00 01 C9 13 02 01 
   572)       422.6  Rx     18EF6304  8  06 04 00 08 00 00 00 54 
   573)       422.8  Rx     18EF6305  8  00 49 48 49 00 00 49 02 
   574)       423.4  Rx         0489  8  00 94 39 80 43 79 66 00 
   575)       425.0  Rx         010B  8  00 00 AF 0B 00 9E 3F 00 
   576)       425.3  Rx         0085  8  1A 0F 00 00 00 55 31 05 
   577)       425.5  Rx         0076  8  0F 8A A0 87 DA 3E 00 00 
   578)       425.7  Rx         00A9  8  32 0F 00 00 00 00 00 00 
   579)       426.0  Rx         00AE  8  03 D0 BE 03 00 00 68 00 
   580)       426.2  Rx         00B0  8  08 5F BA 8E FE 7F E7 0F 
   581)       426.5  Rx         0110  8  60 3F E6 05 80 78 00 80 
   582)       427.1  Rx         00A1  8  73 A4 00 00 00 00 00 00 
   583)       427.4  Rx         00A3  8  3B A4 00 00 00 00 00 00 
   584)       428.4  Rx         00B1  8  7D 0E FF 00 00 FF 1F 1E 
   585)       428.7  Rx         027D  8  00 40 01 00 00 00 00 00 
   586)       431.9  Rx     128C0000  8  FF FF 01 00 00 00 00 00 
   587)       432.1  Rx         0113  8  14 0F 00 7D 02 00 2F 01 
   588)       433.4  Rx         02B8  8  FF FF FF FF FF 1F 00 00 
   589)       435.1  Rx         01E4  8  00 00 00 00 00 00 00 00 
   590)       435.7  Rx         00D1  8  4C F0 DF FF 1F 9F FF 64 
   591)       437.1  Rx         00B9  8  CB 45 00 00 00 00 FF 32 
   592)       437.3  Rx         0099  8  E6 15 00 00 00 20 00 20 
   593)       438.4  Rx         00B1  8  81 0F FF 00 00 FF 1F 1E 
   594)       438.7  Rx         0173  8  00 00 00 00 00 00 F0 3F 
   595)       438.9  Rx         0371  8  09 4F F2 09 3E C5 38 01 
   596)       439.6  Rx         0020  8  DC 01 40 0C C0 00 00 00 
   597)       441.7  Rx     18EF6303  8  01 F9 00 00 00 D4 00 03 
   598)       442.0  Rx         009C  8  C7 23 48 FF 03 14 00 00 
   599)       442.2  Rx     18EF6304  8  07 D7 05 87 16 DC 0C 00 
   600)       442.5  Rx     18EF6305  8  01 00 00 00 00 00 00 1F 
   601)       445.1  Rx         0085  8  90 00 00 00 00 55 31 05 
   602)       445.4  Rx         00A9  8  EA 00 00 00 00 00 00 00 
   603)       445.6  Rx         0076  8  0F 7A A0 87 DA 3E 00 00 
   604)       445.8  Rx         00AE  8  90 D1 BE 03 00 00 68 00 
   605)       446.1  Rx         00B0  8  08 5F BA 8E FE 7F E7 0F 
   606)       446.3  Rx         010B  8  00 00 AF 0B 00 9E 3F 00 
   607)       446.6  Rx         0110  8  A4 30 E6 05 80 78 00 80 
   608)       446.8  Rx         0151  8  60 FF FA 92 00 80 BC C4 
   609)       447.1  Rx         00A1  8  E2 A5 00 00 00 00 00 00 
   610)       447.4  Rx         00A3  8  1C A5 00 00 00 00 00 00 
   611)       448.4  Rx         00B1  8  A3 00 FF 00 00 FF 1F 1E 
   612)       448.6  Rx         027D  8  00 40 01 00 00 00 00 00 
   613)       450.1  Rx         007F  8  FF 3F FF 1F FF 3F FF 1F 
   614)       451.8  Rx         0113  8  84 00 00 7D 02 00 2F 01 
   615)       455.7  Rx         00D1  8  48 F1 DF FF 1F 9F FF 64 
   616)       457.1  Rx         00B9  8  AA 46 00 00 00 00 FF 32 
   617)       457.3  Rx         0099  8  0F 16 00 00 00 20 00 20 
   618)       458.5  Rx         00B1  8  08 01 FF 00 00 FF 1F 1E 
   619)       458.7  Rx         0371  8  2A 40 F2 09 3E C5 38 01 
   620)       461.7  Rx         009C  8  2E 24 48 FF 03 14 00 00 
   621)       462.0  Rx         00D3  8  13 00 D0 07 00 C0 00 00 
   622)       462.3  Rx     18EF6303  8  02 01 01 F1 00 EC 00 00 
   623)       462.6  Rx     18EF6304  8  00 00 00 00 00 00 00 64 
   624)       462.9  Rx     18EF6305  8  02 01 00 04 00 51 E8 4E 
   625)       463.4  Rx         02D3  8  7C FF 47 0B 7E 00 40 CF 
   626)       465.0  Rx         010B  8  00 00 AF 0B 00 9E 3F 00 
   627)       465.2  Rx         0085  8  4A 01 00 00 00 55 31 05 
   628)       465.5  Rx         0076  8  0F 7A A0 87 DA 3E 00 00 
   629)       465.7  Rx         00A9  8  53 01 00 00 00 00 00 00 
   630)       466.0  Rx         00AE  8  78 D2 BE 03 00 00 68 00 
   631)       466.2  Rx         00B0  8  08 5F BA 8E FE 7F E7 0F 
   632)       466.4  Rx         0110  8  B1 31 E6 05 80 78 00 80 
   633)       466.8  Rx         0138  8  00 00 43 47 FC 1F 00 00 
   634)       467.1  Rx         00A1  8  6C A6 00 00 00 00 00 00 
   635)       467.3  Rx         00A3  8  95 A6 00 00 00 00 00 00 
   636)       468.4  Rx         00B1  8  1F 02 FF 00 00 FF 1F 1E 
   637)       468.7  Rx         027D  8  00 40 01 00 00 00 00 00 
   638)       468.9  Rx         02CA  8  FF FF FF 03 00 00 00 00 
   639)       470.2  Rx     0BA40000  8  20 00 00 00 00 00 00 00 
   640)       470.4  Rx         045A  8  97 03 E4 E8 02 46 05 CB 
   641)       471.8  Rx         02BB  8  46 FF 7F FF CF 20 FF 3E 
   642)       472.0  Rx         0113  8  63 01 00 7D 02 00 2F 01 
   643)       475.1  Rx         02CB  8  00 00 3D 3C FF 00 00 00 
   644)       475.7  Rx         00D1  8  35 F2 DF 00 20 9F FF 64 
   645)       477.1  Rx         00B9  8  0A 47 00 00 00 00 FF 32 
   646)       477.4  Rx         0099  8  0A 17 00 00 00 20 00 20 
   647)       478.4  Rx         00B1  8  B4 03 FF 00 00 FF 1F 1E 
   648)       478.7  Rx         0371  8  4B 41 F2 09 3E C5 38 01 
   649)       480.1  Rx     04880001  8  0A 5F 00 00 00 00 00 00 
   650)       481.8  Rx     18EF6303  8  03 00 00 40 1F 01 02 58 
   651)       482.0  Rx         009C  8  6A 25 48 FF 03 14 00 00 
   652)       482.3  Rx     18EF6304  8  01 00 00 00 00 00 00 20 
   653)       482.6  Rx     18EF6305  8  03 00 00 00 00 00 00 0C 
   654)       485.0  Rx         010B  8  00 00 AF 0B 00 9E 3F 00 
   655)       485.3  Rx         0085  8  8C 02 00 00 00 55 31 05 
   656)       485.5  Rx         0076  8  0F 7A A0 87 DA 3E 00 00 
   657)       485.8  Rx         00A9  8  51 02 00 00 00 00 00 00 
   658)       486.0  Rx         00AE  8  53 D3 BE 03 00 00 68 00 
   659)       486.2  Rx         00B0  8  08 5F BA 8E FE 7F E7 0F 
   660)       486.4  Rx         0110  8  D9 32 E6 05 80 78 00 80 
   661)       487.1  Rx         00A1  8  A1 A7 00 00 00 00 00 00 
   662)       487.3  Rx         00A3  8  4A A7 00 00 00 00 00 00 
   663)       488.4  Rx         00B1  8  E2 04 FF 00 00 FF 1F 1E 
   664)       488.7  Rx         027D  8  00 40 01 00 00 00 00 00 
   665)       491.7  Rx         0113  8  86 02 00 7D 02 00 2F 01 
   666)       495.0  Rx         013B  8  93 06 00 00 00 E3 46 04 
   667)       495.3  Rx         03F2  8  FF 01 00 00 00 00 7A FF 
   668)       495.5  Rx         0493  8  23 00 21 00 DD 05 91 7E 
   669)       495.7  Rx         00D1  8  83 F3 DF 01 20 9F FF 64 
   670)       497.1  Rx         00B9  8  39 48 00 00 00 00 FF 32 
   671)       497.4  Rx         0099  8  D5 18 00 00 00 20 00 20 
   672)       498.4  Rx         00B1  8  AF 05 FF 00 00 FF 1F 1E 
   673)       498.7  Rx         0371  8  01 42 F2 09 3E C5 38 01 
   674)       501.8  Rx         009C  8  64 26 48 FF 03 14 00 00 
   675)       502.0  Rx     18EF6303  8  04 13 11 00 13 1D 20 00 
   676)       502.3  Rx     18EF6304  8  02 00 00 4A 4A 4A 1C 0C 
   677)       502.6  Rx     18EF6305  8  04 03 00 03 00 03 00 00 
   678)       505.0  Rx         010B  8  00 00 AF 0B 00 9E 3F 00 
   679)       505.3  Rx         0085  8  0C 03 00 00 00 55 31 05 
   680)       505.5  Rx         00A9  8  0E 03 00 00 00 00 00 00 
   681)       505.7  Rx         00AE  8  DC D4 BE 03 00 00 68 00 
   682)       506.0  Rx         00B0  8  08 5F BA 8E FE 7F E7 0F 
   683)       506.2  Rx         0110  8  70 33 E6 05 80 78 00 80 
   684)       506.5  Rx         01BD  8  FF FF FF 1F FF FF FF 1F 
   685)       506.7  Rx         0076  8  0F 7A A0 87 DA 3E 00 00 
   686)       507.1  Rx         00A1  8  38 A8 00 00 00 00 00 00 
   687)       507.4  Rx         00A3  8  38 A8 00 00 00 00 00 00 
   688)       508.4  Rx         00B1  8  9B 06 FF 00 00 FF 1F 1E 
   689)       508.6  Rx         027D  8  00 40 01 00 00 00 00 00 
   690)       510.7  Rx         0233  8  02 FF 00 00 00 00 00 00 
   691)       511.7  Rx         0113  8  87 03 00 7D 02 00 2F 01 
   692)       512.0  Rx         0134  8  06 04 30 55 F4 21 00 00 
   693)       512.2  Rx         0491  8  00 00 00 00 00 00 00 00 
   694)       515.2  Rx         02CC  8  85 37 0E 00 00 64 48 00 
   695)       515.7  Rx         00D1  8  90 F4 DF 00 20 9F FF 64 
   696)       516.8  Rx         0136  8  00 07 00 04 1C 00 00 00 
   697)       517.1  Rx         00B9  8  CE 49 00 00 00 00 FF 32 
   698)       517.4  Rx         0099  8  A3 19 00 00 00 20 00 20 
   699)       518.4  Rx         00B1  8  35 07 FF 00 00 FF 1F 1E 
   700)       518.7  Rx         0170  8  FF FF 00 00 00 00 00 00 
   701)       518.9  Rx         0162  8  11 40 0B 0F E7 7F FF 5A 
   702)       519.2  Rx         0371  8  F3 43 F2 09 3E C5 38 01 
   703)       519.4  Rx         0160  8  30 40 05 AA AA AA AA AA 
   704)       521.8  Rx     18EF6303  8  05 00 00 00 00 00 00 01 
   705)       522.0  Rx         009C  8  B6 27 48 FF 03 14 00 00 
   706)       522.3  Rx         013C  8  FF FF 00 01 4E 14 02 01 
   707)       522.6  Rx     18EF6304  8  03 55 55 55 00 00 00 00 
   708)       522.8  Rx     18EF6305  8  05 06 36 F0 0C 12 00 00 
   709)       523.1  Rx         0162  8  21 01 03 01 21 0F EB 01 
   710)       525.0  Rx         010B  8  00 00 AF 0B 00 9E 3F 00 
   711)       525.3  Rx         0085  8  FF 04 00 00 00 55 31 05 
   712)       525.5  Rx         0076  8  0E 7A A0 87 DA 3E 00 00 
   713)       525.7  Rx         009A  8  88 13 00 00 00 00 80 3E 
   714)       526.0  Rx         00A9  8  B3 04 00 00 00 00 00 00 
   715)       526.2  Rx         00AE  8  40 D5 BE 03 00 00 68 00 
   716)       526.5  Rx         00B0  8  08 5F BA 8E FE 7F E7 0F 
   717)       526.7  Rx         0110  8  09 34 E6 05 80 78 00 80 
   718)       526.9  Rx         02FC  8  C3 3B 00 00 00 00 00 00 
   719)       527.2  Rx         00A1  8  3C A9 00 00 00 00 00 00 
   720)       527.4  Rx         00A3  8  79 A9 00 00 00 00 00 00 
   721)       528.4  Rx         003F  8  6F 7B 00 00 03 00 FC 5F 
   722)       528.6  Rx         00B1  8  41 08 FF 00 00 FF 1F 1E 
   723)       528.9  Rx         027D  8  00 40 01 00 00 00 00 00 
   724)       531.8  Rx         0113  8  AC 04 00 7D 02 00 2F 01 
   725)       533.0  Rx         0162  8  22 02 0F E3 01 18 47 01 
   726)       533.4  Rx         026A  8  9A 01 DE E2 FE FE FF FF 
   727)       533.6  Rx         02B8  8  FF FF FF FF FF 1F 00 00 
   728)       535.1  Rx         01E4  8  00 00 00 00 00 00 00 00 
   729)       535.3  Rx         02CE  2  3F 00 
   730)       535.5  Rx         044B  8  00 00 FF 5E 1D 4C 07 04 
   731)       535.7  Rx         00D1  8  A2 F5 DF 00 20 9F FF 64 
   732)       537.1  Rx         00B9  8  56 4A 00 00 00 00 FF 32 
   733)       537.3  Rx         0099  8  39 1A 00 00 00 20 00 20 
   734)       538.5  Rx         00B1  8  0C 09 FF 00 00 FF 1F 1E 
   735)       538.7  Rx         0173  8  00 00 00 00 00 00 F0 3F 
   736)       538.9  Rx         0371  8  06 44 F2 09 3E C5 38 01 
   737)       539.2  Rx         03EA  8  00 00 00 00 00 00 00 00 
   738)       539.6  Rx         0020  8  4A 02 40 0C C0 00 00 00 
   739)       541.7  Rx     18EF6303  8  06 BC 02 BC 02 00 00 00 
   740)       542.0  Rx         009C  8  C6 28 48 FF 03 14 00 00 
   741)       542.3  Rx     18EF6304  8  04 07 00 07 00 00 00 00 
   742)       542.6  Rx     18EF6305  8  00 48 49 49 00 00 49 02 
   743)       543.0  Rx         0162  8  23 06 46 24 32 00 02 9A 
   744)       545.0  Rx         010B  8  00 00 AF 0B 00 9E 3F 00 
   745)       545.3  Rx         0085  8  B3 05 00 00 00 55 31 05 
   746)       545.5  Rx         0076  8  0E 7A A0 87 DA 3E 00 00 
   747)       545.8  Rx         00A9  8  0A 05 00 00 00 00 00 00 
   748)       546.0  Rx         00AE  8  FD D6 BE 03 00 00 68 00 
   749)       546.2  Rx         00B0  8  08 5F BA 8E FE 7F E7 0F 
   750)       546.5  Rx         0110  8  1C 35 E6 05 80 78 00 80 
   751)       546.7  Rx         0151  8  60 FF FA 92 00 80 10 C5 
   752)       547.0  Rx     12900000  8  00 FE 01 FF 7F 50 64 00 
   753)       547.2  Rx         00A1  8  4A AA 00 00 00 00 00 00 
   754)       547.5  Rx         00A3  8  6E AA 00 00 00 00 00 00 
   755)       548.4  Rx         00B1  8  38 0A FF 00 00 FF 1F 1E 
   756)       548.7  Rx         027D  8  00 40 01 00 00 00 00 00 
   757)       548.8  Rx         03CA  2  FF FF 
   758)       550.1  Rx         007F  8  FF 3F FF 1F FF 3F FF 1F 
   759)       550.7  Rx         0161  8  4F 49 02 00 00 00 FF 01 
   760)       551.7  Rx         0113  8  F7 05 00 7D 02 00 2F 01 
   761)       553.0  Rx         0162  8  24 00 00 00 00 00 00 00 
   762)       555.1  Rx         013D  8  EB 02 29 0E 3D 2E 63 10 
   763)       555.7  Rx         00D1  8  01 F6 DF 00 20 9F FF 64 
   764)       557.1  Rx         00B9  8  A1 4B 00 00 00 00 FF 32 
   765)       557.4  Rx         0099  8  4F 1B 00 00 00 20 00 20 
   766)       558.5  Rx         00B1  8  05 0B FF 00 00 FF 1F 1E 
   767)       558.7  Rx         0371  8  67 45 F2 09 3E C5 38 01 
   768)       558.9  Rx         03CC  8  00 00 00 00 00 00 00 3E 
   769)       561.8  Rx         009C  8  EB 29 48 FF 03 14 00 00 
   770)       562.1  Rx     18EF6303  8  07 00 00 00 AC 0D 80 0C 
   771)       562.3  Rx         00D3  8  13 00 D0 07 00 C0 00 00 
   772)       562.5  Rx         03F4  8  FF FF FF FF FF FF 03 00 
   773)       562.8  Rx     18EF6304  8  05 00 00 00 00 00 00 00 
   774)       563.1  Rx     18EF6305  8  01 00 00 00 00 00 00 2B 
   775)       563.3  Rx         0162  8  25 01 1A 30 30 30 50 45 
   776)       563.6  Rx         02D3  8  7C FF 47 0B 7E 00 80 DF 
   777)       565.0  Rx         010B  8  00 00 AF 0B 00 9E 3F 00 
   778)       565.3  Rx         0085  8  1D 06 00 00 00 55 31 05 
   779)       565.5  Rx         00A9  8  4A 06 00 00 00 00 00 00 
   780)       565.8  Rx         00AE  8  E6 D7 BE 03 00 00 68 00 
   781)       566.0  Rx         00B0  8  08 5F BA 8E FE 7F E7 0F 
   782)       566.2  Rx         0110  8  23 36 E6 05 80 78 00 80 
   783)       566.4  Rx         02FA  8  FF 00 78 00 80 E0 00 1C 
   784)       566.7  Rx         0302  8  98 11 2C 01 00 00 00 00 
   785)       567.0  Rx         0138  8  00 00 43 47 FC 1F 00 00 
   786)       567.2  Rx         00A1  8  D1 AB 00 00 00 00 00 00 
   787)       567.4  Rx         00A3  8  81 AB 00 00 00 00 00 00 
   788)       567.7  Rx         03FD  8  1F 00 FF FF DD 68 60 00 
   789)       567.9  Rx         0076  8  0E 7A A0 87 DA 3E 00 00 
   790)       568.4  Rx         00B1  8  D9 0C FF 00 00 FF 1F 1E 
   791)       568.7  Rx         027D  8  00 40 01 00 00 00 00 00 
   792)       568.9  Rx         02CA  8  FF FF FF 03 00 00 00 00 
   793)       570.2  Rx     0BA40000  8  20 00 00 00 00 00 00 00 
   794)       571.8  Rx         02BB  8  46 FF 7F FF CF 20 FF 3E 
   795)       572.0  Rx         0113  8  4D 06 00 7D 02 00 2F 01 
   796)       573.0  Rx         0162  8  26 50 42 53 4B 49 33 37 
   797)       575.2  Rx         02CB  8  00 00 3D 3C FF 00 00 00 
   798)       575.4  Rx         03BE  8  E6 8F D2 5D 7C 01 5C 03 
   799)       575.7  Rx         00D1  8  BB F7 DF 00 20 9F FF 64 
   800)       577.1  Rx         00B9  8  C3 4C 00 00 00 00 FF 32 
   801)       577.4  Rx         0099  8  22 1C 00 00 00 20 00 20 
   802)       578.4  Rx         00B1  8  F8 0D FF 00 00 FF 1F 1E 
   803)       578.6  Rx         0371  8  2D 46 F2 09 3E C5 38 01 
   804)       578.9  Rx     12880000  8  00 00 00 00 FE 03 00 00 
   805)       579.2  Rx     12B40000  8  E3 4F A7 C4 12 49 81 3E 
   806)       580.1  Rx     04880001  8  0A 5F 00 00 00 00 00 00 
   807)       581.8  Rx     18EF6303  8  08 00 00 00 00 64 64 64 
   808)       582.0  Rx         009C  8  44 2A 48 FF 03 14 00 00 
   809)       582.3  Rx     18EF6304  8  06 04 00 08 00 00 00 54 
   810)       582.6  Rx     18EF6305  8  02 01 00 04 00 51 E8 4E 
   811)       583.0  Rx         0162  8  27 41 48 36 43 32 30 30 
   812)       583.4  Rx         0450  8  E9 1A 00 00 01 B4 19 00 
   813)       585.0  Rx         010B  8  00 00 AF 0B 00 9E 3F 00 
   814)       585.3  Rx         0085  8  28 07 00 00 00 55 31 05 
   815)       585.5  Rx         0076  8  0E 7A A0 87 DA 3E 00 00 
   816)       585.7  Rx         00A9  8  80 07 00 00 00 00 00 00 
   817)       586.0  Rx         00AE  8  98 D8 BE 03 00 00 68 00 
   818)       586.2  Rx         00B0  8  08 5F BA 8E FE 7F E7 0F 
   819)       586.5  Rx         0110  8  DD 37 E6 05 80 78 00 80 
   820)       586.8  Rx     0BD80000  8  08 00 00 C0 00 80 3F 3E 
   821)       587.1  Rx         00A1  8  37 AC 00 00 00 00 00 00 
   822)       587.4  Rx         00A3  8  7F AC 00 00 00 00 00 00 
   823)       588.4  Rx         00B1  8  7D 0E FF 00 00 FF 1F 1E 
   824)       588.5  Rx         0068  1  02 
   825)       588.8  Rx         027D  8  00 40 01 00 00 00 00 00 
   826)       589.1  Rx     12F00000  8  0A 64 A1 00 02 00 00 00 
   827)       591.7  Rx         0113  8  44 07 00 7D 02 00 2F 01 
   828)       593.0  Rx         0162  8  28 30 30 30 30 31 30 30 
   829)       595.0  Rx         013B  8  0B 07 00 00 00 E3 46 04 
   830)       595.3  Rx         0493  8  23 00 21 00 DD 05 91 7E 
   831)       595.7  Rx         00D1  8  25 F8 DF 00 20 9F FF 64 
   832)       597.1  Rx         00B9  8  63 4D 00 00 00 00 FF 32 
   833)       597.4  Rx         0099  8  27 1D 00 00 00 20 00 20 
   834)       598.4  Rx         00B1  8  81 0F FF 00 00 FF 1F 1E 
   835)       598.7  Rx     0BE00000  8  3A 01 FE 3F 08 00 00 00 
   836)       599.0  Rx         0371  8  6A 47 F2 09 3E C5 38 01 
   837)       601.7  Rx         009C  8  BC 2B 48 FF 03 14 00 00 
   838)       602.0  Rx     18EF6303  8  09 E3 29 01 88 13 00 00 
   839)       602.3  Rx     18EF6304  8  07 D8 05 85 16 DA 0C 00 
   840)       602.6  Rx     18EF6305  8  03 01 00 00 00 00 00 0C 
   841)       603.1  Rx         0162  8  29 01 03 0F E7 7F FF 00 
   842)       603.4  Rx         0431  8  3E 1E FE FF EF E9 00 00 
   843)       605.1  Rx         010B  8  00 00 AF 0B 00 9E 3F 00 
   844)       605.3  Rx         0085  8  D4 08 00 00 00 55 31 05 
   845)       605.6  Rx         00A9  8  1F 08 00 00 00 00 00 00 
   846)       605.8  Rx         00AE  8  CB D9 BE 03 00 00 68 00 
   847)       606.0  Rx         00B0  8  08 5F BA 8E FE 7F E7 0F 
   848)       606.3  Rx         0110  8  0C 38 E6 05 80 78 00 80 
   849)       606.5  Rx         01BD  8  FF FF FF 1F FF FF FF 1F 
   850)       606.8  Rx         0076  8  0E 7A A0 87 DA 3E 00 00 
   851)       607.1  Rx         00A1  8  1C AD 00 00 00 00 00 00 
   852)       607.3  Rx         00A3  8  46 AD 00 00 00 00 00 00 
   853)       608.4  Rx         00B1  8  A3 00 FF 00 00 FF 1F 1E 
   854)       608.6  Rx         027D  8  00 40 01 00 00 00 00 00 
   855)       608.9  Rx     0BD40000  8  04 00 00 C0 FF 01 00 80 
   856)       610.7  Rx         0233  8  02 FF 00 00 00 00 00 00 
   857)       611.8  Rx         0113  8  10 08 00 7D 02 00 2F 01 
   858)       612.0  Rx         0134  8  07 04 30 55 F4 21 00 00 
   859)       613.0  Rx         0162  8  2A 64 0F E6 0F E3 0F E5 
   860)       613.4  Rx         0443  8  20 00 00 00 22 00 0C 00 
   861)       614.6  Rx         046B  8  00 00 3C 50 50 6D 4C 10 
   862)       615.7  Rx         00D1  8  C1 F9 DF 00 20 9F FF 64 
   863)       616.8  Rx         0136  8  00 07 00 04 1C 00 00 00 
   864)       617.1  Rx         00B9  8  02 4E 00 00 00 00 FF 32 
   865)       617.4  Rx         0099  8  CE 1E 00 00 00 20 00 20 
   866)       618.5  Rx         00B1  8  08 01 FF 00 00 FF 1F 1E 
   867)       618.7  Rx         0170  8  FF FF 00 00 00 00 00 00 
   868)       618.9  Rx         0371  8  CE 48 F2 09 3E C5 38 01 
   869)       621.7  Rx         009C  8  73 2C 48 FF 03 14 00 00 
   870)       622.0  Rx     18EF6303  8  0A 80 0C 00 00 00 00 20 
   871)       622.3  Rx         013C  8  FF FF 00 01 EE 15 02 01 
   872)       622.6  Rx     18EF6304  8  00 00 00 00 00 00 00 64 
   873)       622.8  Rx     18EF6305  8  04 03 00 03 00 03 00 00 
   874)       623.1  Rx         0162  8  2B 0F E5 0F E5 0F E6 0F 
   875)       623.4  Rx         0489  8  00 94 39 80 43 79 66 00 
   876)       624.6  Rx         0071  8  00 57 31 4E 32 34 33 37 
   877)       625.0  Rx         010B  8  00 00 AF 0B 00 9E 3F 00 
   878)       625.3  Rx         0085  8  AC 09 00 00 00 55 31 05 
   879)       625.5  Rx         0076  8  0F 8A A0 87 DA 3E 00 00 
   880)       625.8  Rx         00A9  8  D5 09 00 00 00 00 00 00 
   881)       626.0  Rx         00AE  8  05 DA BE 03 00 00 68 00 
   882)       626.2  Rx         00B0  8  08 5F BA 8E FE 7F E7 0F 
   883)       626.5  Rx         0110  8  E7 39 E6 05 80 78 00 80 
   884)       626.7  Rx         0448  8  BB 01 00 3B 38 3D 3E 3B 
   885)       627.1  Rx         00A1  8  6B AE 00 00 00 00 00 00 
   886)       627.3  Rx         00A3  8  F4 AE 00 00 00 00 00 00 
   887)       628.4  Rx         00B1  8  1F 02 FF 00 00 FF 1F 1E 
   888)       628.7  Rx         027D  8  00 40 01 00 00 00 00 00 
   889)       629.0  Rx     0BE40000  8  A4 01 FE 3F 00 00 00 00 
   890)       631.9  Rx         0113  8  4B 09 00 7D 02 00 2F 01 
   891)       633.0  Rx         0162  8  2C E6 0F E7 0F E6 0F E7 
   892)       633.4  Rx         02B8  8  FF FF FF FF FF 1F 00 00 
   893)       635.1  Rx         01E4  8  00 00 00 00 00 00 00 00 
   894)       635.7  Rx         00D1  8  03 FA DF 01 20 9F FF 64 
   895)       637.1  Rx         00B9  8  7F 4F 00 00 00 00 FF 32 
   896)       637.4  Rx         0099  8  A4 1F 00 00 00 20 00 20 
   897)       638.4  Rx         00B1  8  B4 03 FF 00 00 FF 1F 1E 
   898)       638.7  Rx         0173  8  00 00 00 00 00 00 F0 3F 
   899)       638.9  Rx         0371  8  AF 49 F2 09 3E C5 38 01 
   900)       639.6  Rx         0020  8  9E 03 40 0C C0 00 00 00 
   901)       641.8  Rx     18EF6303  8  0B 00 00 00 00 00 00 06 
   902)       642.0  Rx         009C  8  AC 2D 48 FF 03 14 00 00 
   903)       642.3  Rx     18EF6304  8  01 00 00 00 00 00 00 22 
   904)       642.6  Rx     18EF6305  8  05 10 36 F0 0C 12 00 00 
   905)       643.0  Rx         0162  8  2D 0F E5 0F E5 0F E4 0F 
   906)       644.6  Rx         0071  8  01 31 32 32 4A 30 32 33 
   907)       645.1  Rx         010B  8  00 00 AF 0B 00 9E 3F 00 
   908)       645.3  Rx         0085  8  02 0A 00 00 00 55 31 05 
   909)       645.6  Rx         0076  8  0F 8A A0 87 DA 3E 00 00 
   910)       645.8  Rx         00A9  8  42 0A 00 00 00 00 00 00 
   911)       646.1  Rx         00AE  8  B8 DB BE 03 00 00 68 00 
   912)       646.3  Rx         00B0  8  08 5F BA 8E FE 7F E7 0F 
   913)       646.5  Rx         0110  8  3A 3A E6 05 80 78 00 80 
   914)       646.7  Rx         0151  8  60 FF FA 92 00 80 CB C6 
   915)       647.0  Rx         0199  8  6F AB C8 FF F1 7F 00 80 
   916)       647.3  Rx         00A1  8  89 AF 00 00 00 00 00 00 
   917)       647.5  Rx         00A3  8  7D AF 00 00 00 00 00 00 
   918)       648.4  Rx         00B1  8  E2 04 FF 00 00 FF 1F 1E 
   919)       648.7  Rx         027D  8  00 40 01 00 00 00 00 00 
   920)       650.1  Rx         007F  8  FF 3F FF 1F FF 3F FF 1F 
   921)       651.8  Rx         0113  8  81 0A 00 7D 02 00 2F 01 
   922)       653.0  Rx         0162  8  2E E6 0F E6 0F E7 0F E8 
   923)       655.1  Rx         0041  8  FC 9F 00 00 30 05 80 FF 
   924)       655.7  Rx         00D1  8  ED FB DF 00 20 9F FF 64 
   925)       657.1  Rx         00B9  8  8D 40 00 00 00 00 FF 32 
   926)       657.4  Rx         0099  8  EA 10 00 00 00 20 00 20 
   927)       658.4  Rx         00B1  8  AF 05 FF 00 00 FF 1F 1E 
   928)       658.6  Rx         0371  8  E5 4A F2 09 3E C5 38 01 
   929)       661.8  Rx         009C  8  AA 2E 48 FF 03 14 00 00 
   930)       662.0  Rx         00D3  8  13 00 D0 07 00 C0 00 00 
   931)       662.3  Rx     18EF6303  8  0C 57 30 D8 00 D9 00 06 
   932)       662.5  Rx     18EF6304  8  02 00 00 4A 4A 4A 1C 0C 
   933)       662.8  Rx     18EF6305  8  00 48 4A 49 00 00 49 02 
   934)       663.0  Rx         0162  8  2F 0F E7 0F E8 0F E7 0F 
   935)       663.4  Rx         02D3  8  7C FF 47 0B 7E 00 40 CF 
   936)       664.6  Rx         0071  8  02 31 32 32 FF FF FF FF 
   937)       665.0  Rx         010B  8  00 00 AF 0B 00 9E 3F 00 
   938)       665.3  Rx         0076  8  0F 8A A0 87 DA 3E 00 00 
   939)       665.6  Rx         0085  8  60 0B 00 00 00 55 31 05 
   940)       665.8  Rx         00A9  8  88 0B 00 00 00 00 00 00 
   941)       666.0  Rx         00AE  8  32 DC BE 03 00 00 68 00 
   942)       666.2  Rx         00B0  8  08 5F BA 8E FE 7F E7 0F 
   943)       666.5  Rx         0110  8  9A 3B E6 05 80 78 00 80 
   944)       666.8  Rx         02D2  8  FF 0F 40 00 00 00 00 00 
   945)       667.0  Rx         0138  8  00 00 43 47 FC 1F 00 00 
   946)       667.2  Rx         00A1  8  E7 A0 00 00 00 00 00 00 
   947)       667.5  Rx         00A3  8  77 A0 00 00 00 00 00 00 
   948)       668.4  Rx         00B1  8  9B 06 FF 00 00 FF 1F 1E 
   949)       668.7  Rx         027D  8  00 40 01 00 00 00 00 00 
   950)       668.9  Rx         02CA  8  FF FF FF 03 00 00 00 00 
   951)       670.2  Rx     0BA40000  8  20 00 00 00 00 00 00 00 
   952)       670.4  Rx         045A  8  97 63 E5 E8 02 46 05 CB 
   953)       671.8  Rx         02BB  8  46 FF 7F FF CF 20 FF 3E 
   954)       672.0  Rx         0113  8  3C 0B 00 7D 02 00 2F 01 
   955)       673.0  Rx         0162  8  20 E7 0F E7 0F E7 0F E7 
   956)       675.2  Rx         02CB  8  00 00 3D 3C FF 00 00 00 
   957)       675.7  Rx         00D1  8  9E FC DF 00 20 9F FF 64 
   958)       677.1  Rx         00B9  8  DD 41 00 00 00 00 FF 32 
   959)       677.4  Rx         0099  8  EF 11 00 00 00 20 00 20 
   960)       678.4  Rx         00B1  8  35 07 FF 00 00 FF 1F 1E 
   961)       678.7  Rx         0371  8  7B 4B F2 09 3E C5 38 01 
   962)       680.2  Rx     04880001  8  0A 5F 00 00 00 00 00 00 
   963)       681.8  Rx     18EF6303  8  0D 00 00 40 1F AC 0D 00 
   964)       682.0  Rx         009C  8  F9 2F 48 FF 03 14 00 00 
   965)       682.3  Rx     18EF6304  8  03 55 55 55 00 00 00 00 
   966)       682.6  Rx     18EF6305  8  01 00 00 00 00 00 00 05 
   967)       683.1  Rx         0162  8  21 0F E7 0F E8 0F E7 0F 
   968)       685.0  Rx         010B  8  00 00 AF 0B 00 9E 3F 00 
   969)       685.3  Rx         0085  8  9A 0C 00 00 00 55 31 05 
   970)       685.5  Rx         0076  8  0F 8A A0 87 DA 3E 00 00 
   971)       685.7  Rx         00A9  8  46 0C 00 00 00 00 00 00 
   972)       686.0  Rx         00AE  8  6A DD BE 03 00 00 68 00 
   973)       686.2  Rx         00B0  8  08 5F BA 8E FE 7F E7 0F 
   974)       686.5  Rx         0110  8  44 3C E6 05 80 78 00 80 
   975)       686.7  Rx         02B4  8  7F BE BF 7F 00 F8 FB 3F 
   976)       686.9  Rx         04BE  8  2C 01 1E 8E 01 00 00 00 
   977)       687.2  Rx         00A1  8  BA A1 00 00 00 00 00 00 
   978)       687.4  Rx         00A3  8  4E A1 00 00 00 00 00 00 
   979)       688.4  Rx         00B1  8  41 08 FF 00 00 FF 1F 1E 
   980)       688.6  Rx         027D  8  00 40 01 00 00 00 00 00 
   981)       691.8  Rx         0113  8  DA 0C 00 7D 02 00 2F 01 
   982)       693.0  Rx         0162  8  22 E7 0F E7 0F E7 0F E8 
   983)       695.0  Rx         013B  8  9C 08 00 00 00 E3 46 04 
   984)       695.3  Rx         03F2  8  FF 01 00 00 00 00 7A FF 
   985)       695.5  Rx         0493  8  23 00 21 00 DD 05 91 7E 
   986)       695.8  Rx         00D1  8  C6 FD DF 00 20 9F FF 64 
   987)       697.1  Rx         00B9  8  E2 42 00 00 00 00 FF 32 
   988)       697.3  Rx         0099  8  F8 12 00 00 00 20 00 20 
   989)       698.5  Rx         00B1  8  0C 09 FF 00 00 FF 1F 1E 
   990)       698.7  Rx         0371  8  6D 4C F2 09 3E C5 38 01 
   991)       701.7  Rx         009C  8  E3 20 48 FF 03 14 00 00 
   992)       702.0  Rx     18EF6303  8  0E 54 0D AC 0D 40 1F 00 
   993)       702.3  Rx     18EF6304  8  04 07 00 07 00 00 00 00 
   994)       702.6  Rx     18EF6305  8  02 01 00 04 00 51 E8 4E 
   995)       703.1  Rx         0162  8  23 0F E6 0F EB 0F E9 0F 
   996)       705.0  Rx         010B  8  00 00 AF 0B 00 9E 3F 00 
   997)       705.2  Rx         0085  8  3D 0D 00 00 00 55 31 05 
   998)       705.5  Rx         00A9  8  8C 0D 00 00 00 00 00 00 
   999)       705.7  Rx         00AE  8  17 DE BE 03 00 00 68 00 
  1000)       706.0  Rx         00B0  8  08 5F BA 8E FE 7F E7 0F 
  1001)       706.2  Rx         0110  8  4A 3D E6 05 80 78 00 80 
  1002)       706.5  Rx         01BD  8  FF FF FF 1F FF FF FF 1F 
  1003)       706.7  Rx         0076  8  0F 8A A0 87 DA 3E 00 00 
  1004)       707.1  Rx         00A1  8  90 A2 00 00 00 00 00 00 
  1005)       707.3  Rx         00A3  8  D2 A2 00 00 00 00 00 00 
  1006)       708.4  Rx         00B1  8  38 0A FF 00 00 FF 1F 1E 
  1007)       708.7  Rx         027D  8  00 40 01 00 00 00 00 00 
  1008)       710.7  Rx         0233  8  02 FF 00 00 00 00 00 00 
  1009)       711.8  Rx         0113  8  78 0D 00 7D 02 00 2F 01 
  1010)       712.0  Rx         0134  8  07 04 30 55 F4 21 00 00 
  1011)       713.0  Rx         0162  8  24 EA 0F EA 0F EA 0F E9 
  1012)       715.1  Rx         04CA  8  00 00 00 00 00 BA 01 00 
  1013)       715.3  Rx         02CC  8  85 37 0E 00 00 64 48 00 
  1014)       715.7  Rx         00D1  8  B7 0E E0 00 20 9F FF 64 
  1015)       716.8  Rx         0136  8  00 07 00 04 1C 00 00 00 
  1016)       717.1  Rx         00B9  8  F7 43 00 00 00 00 FF 32 
  1017)       717.4  Rx         0099  8  8E 13 00 00 00 20 00 20 
  1018)       718.4  Rx         00B1  8  05 0B FF 00 00 FF 1F 1E 
  1019)       718.7  Rx         0170  8  FF FF 00 00 00 00 00 00 
  1020)       718.9  Rx         0371  8  EF 4D F2 09 3E C5 38 01 
  1021)       721.7  Rx         009C  8  8D 21 48 FF 03 14 00 00 
  1022)       722.0  Rx     18EF6303  8  0F 00 34 0D 49 0B 01 70 
  1023)       722.3  Rx         013C  8  FF FF 00 01 4D 16 02 01 
  1024)       722.6  Rx     18EF6304  8  05 00 00 00 00 00 00 00 
  1025)       722.9  Rx     18EF6305  8  03 00 00 00 00 00 00 0C 
  1026)       723.1  Rx         0162  8  25 0F EA 0F E9 0F EA 0F 
  1027)       725.1  Rx         0085  8  26 0E 00 00 00 55 31 05 
  1028)       725.3  Rx         00A9  8  F8 0E 00 00 00 00 00 00 
  1029)       725.6  Rx         0076  8  0E 8A A0 87 DA 3E 00 00 
  1030)       725.8  Rx         00AE  8  11 DF BE 03 00 00 68 00 
  1031)       726.1  Rx         00B0  8  08 5F BA 8E FE 7F E7 0F 
  1032)       726.3  Rx         010B  8  00 00 AF 0B 00 9E 3F 00 
  1033)       726.5  Rx         0110  8  97 3E E6 05 80 78 00 80 
  1034)       727.1  Rx         00A1  8  2F A3 00 00 00 00 00 00 
  1035)       727.3  Rx         00A3  8  75 A3 00 00 00 00 00 00 
  1036)       728.4  Rx         00B1  8  D9 0C FF 00 00 FF 1F 1E 
  1037)       728.7  Rx         027D  8  00 40 01 00 00 00 00 00 
  1038)       731.9  Rx         0113  8  B1 0E 00 7D 02 00 2F 01 
  1039)       733.0  Rx         0162  8  26 EA 0F E9 0F EA 0F E9 
  1040)       733.4  Rx         026A  8  9A 01 DE E2 FE FE FF FF 
  1041)       733.6  Rx         02B8  8  FF FF FF FF FF 1F 00 00 
  1042)       735.0  Rx         01E4  8  00 00 00 00 00 00 00 00 
  1043)       735.6  Rx         00D1  8  C0 0F E0 00 20 9F FF 64 
  1044)       737.0  Rx         00B9  8  20 44 00 00 00 00 FF 32 
  1045)       737.3  Rx         0099  8  05 14 00 00 00 20 00 20 
  1046)       738.3  Rx         00B1  8  F8 0D FF 00 00 FF 1F 1E 
  1047)       738.6  Rx         0173  8  00 00 00 00 00 00 F0 3F 
  1048)       738.8  Rx         0371  8  8B 4E F2 09 3E C5 38 01 
  1049)       739.5  Rx         0020  8  9A 04 40 0C C0 00 00 00 
  1050)       740.2  Rx         0412  8  E9 62 29 0E 3B 8E 63 10 
  1051)       741.7  Rx     18EF6303  8  10 27 01 F9 00 B2 04 08 
  1052)       741.9  Rx         009C  8  DC 22 48 FF 03 14 00 00 
  1053)       742.2  Rx     18EF6304  8  06 04 00 08 00 00 00 54 
  1054)       742.5  Rx     18EF6305  8  04 03 00 03 00 02 00 00 
  1055)       742.9  Rx         0162  8  27 0F EA 0F EA 0F EA 0F 
  1056)       744.9  Rx         010B  8  00 00 AF 0B 00 9E 3F 00 
  1057)       745.2  Rx         0085  8  1A 0F 00 00 00 55 31 05 
  1058)       745.4  Rx         0076  8  0E 8A A0 87 DA 3E 00 00 
  1059)       745.7  Rx         00A9  8  32 0F 00 00 00 00 00 00 
  1060)       745.9  Rx         00AE  8  03 D0 BE 03 00 00 68 00 
  1061)       746.1  Rx         00B0  8  08 5F BA 8E FE 7F E7 0F 
  1062)       746.4  Rx         0110  8  60 3F E6 05 80 78 00 80 
  1063)       746.6  Rx         0151  8  60 FF FA 92 00 80 5C C7 
  1064)       747.0  Rx         00A1  8  73 A4 00 00 00 00 00 00 
  1065)       747.2  Rx         00A3  8  3B A4 00 00 00 00 00 00 
  1066)       748.3  Rx         00B1  8  7D 0E FF 00 00 FF 1F 1E 
  1067)       748.6  Rx         027D  8  00 40 01 00 00 00 00 00 
  1068)       750.0  Rx         007F  8  FF 3F FF 1F FF 3F FF 1F 
  1069)       750.6  Rx         0161  8  4F 49 02 00 00 00 FF 01 
  1070)       751.6  Rx         0113  8  14 0F 00 7D 02 00 2F 01 
  1071)       752.9  Rx         0162  8  28 E8 0F E8 0F E6 0F E7 
  1072)       754.5  Rx         04C0  8  2E 05 00 FE EF FF 00 00 
  1073)       754.8  Rx     12940000  8  C6 CB FF FF 3F 00 C8 00 
  1074)       755.1  Rx         04CB  8  00 00 00 00 00 00 00 00 
  1075)       755.6  Rx         00D1  8  A1 F0 DF 00 20 9F FF 64 
  1076)       757.0  Rx         00B9  8  CB 45 00 00 00 00 FF 32 
  1077)       757.2  Rx         0099  8  E6 15 00 00 00 20 00 20 
  1078)       758.3  Rx         00B1  8  81 0F FF 00 00 FF 1F 1E 
  1079)       758.6  Rx         0371  8  09 4F F2 09 3E C5 38 01 
  1080)       758.8  Rx         03CC  8  00 00 00 00 00 00 00 3E 
  1081)       761.7  Rx         009C  8  C7 23 48 FF 03 14 00 00 
  1082)       761.9  Rx         00D3  8  13 00 D0 07 00 C0 00 00 
  1083)       762.2  Rx     18EF6303  8  11 01 01 06 01 01 02 00 
  1084)       762.4  Rx     18EF6304  8  07 D6 05 7F 16 DB 0C 00 
  1085)       762.7  Rx     18EF6305  8  05 06 36 F1 0C 12 00 00 
  1086)       763.0  Rx         0162  8  29 0F E7 0F E6 0F E8 0F 
  1087)       763.2  Rx         02D3  8  7C FF 47 0B 7E 00 80 DF 
  1088)       764.9  Rx         010B  8  00 00 AF 0B 00 9E 3F 00 
  1089)       765.2  Rx         0085  8  90 00 00 00 00 55 31 05 
  1090)       765.4  Rx         0076  8  0E 8A A0 87 DA 3E 00 00 
  1091)       765.6  Rx         00A9  8  EA 00 00 00 00 00 00 00 
  1092)       765.9  Rx         00AE  8  90 D1 BE 03 00 00 68 00 
  1093)       766.2  Rx         00B0  8  08 5F BA 8E FE 7F E7 0F 
  1094)       766.4  Rx         0110  8  A4 30 E6 05 80 78 00 80 
  1095)       766.6  Rx         02FA  8  FF 00 78 00 80 E0 00 1C 
  1096)       766.8  Rx         0138  8  00 00 43 47 FC 1F 00 00 
  1097)       767.1  Rx         00A1  8  E2 A5 00 00 00 00 00 00 
  1098)       767.3  Rx         00A3  8  1C A5 00 00 00 00 00 00 
  1099)       767.6  Rx         02F7  8  3A BB EF 76 35 18 3F C3 
  1100)       767.8  Rx         043C  8  00 00 03 00 00 00 00 00 
  1101)       768.3  Rx         00B1  8  A3 00 FF 00 00 FF 1F 1E 
  1102)       768.5  Rx         027D  8  00 40 01 00 00 00 00 00 
  1103)       768.8  Rx         02CA  8  FF FF FF 03 00 00 00 00 
  1104)       770.2  Rx     0BA40000  8  20 00 00 00 00 00 00 00 
  1105)       771.7  Rx         02BB  8  46 FF 7F FF CF 20 FF 3D 
  1106)       771.9  Rx         0113  8  84 00 00 7D 02 00 2F 01 
  1107)       772.9  Rx         0162  8  2A E6 0F E7 0F E8 0F E6 
  1108)       773.4  Rx         0489  8  00 94 39 80 43 7A 66 00 
  1109)       775.0  Rx         0425  8  00 FC 1E FE 1C 0A 05 00 
  1110)       775.2  Rx         02CB  8  00 00 3D 3C FF 00 00 00 
  1111)       775.5  Rx         02DA  8  FF 3F 64 04 50 03 B4 19 
  1112)       775.7  Rx         00D1  8  A5 F1 DF 00 20 9F FF 64 
  1113)       777.0  Rx         00B9  8  AA 46 00 00 00 00 FF 32 
  1114)       777.2  Rx         0099  8  0F 16 00 00 00 20 00 20 
  1115)       778.4  Rx         00B1  8  08 01 FF 00 00 FF 1F 1E 
  1116)       778.6  Rx         0371  8  2A 40 F2 09 3E C5 38 01 
  1117)       780.1  Rx     04880001  8  0A 5F 00 00 00 00 00 00 
  1118)       781.6  Rx         009C  8  2E 24 48 FF 03 14 00 00 
  1119)       781.9  Rx     18EF6303  8  00 DB 00 DA 00 2E 01 7B 
  1120)       782.2  Rx     18EF6304  8  00 00 00 00 00 00 00 64 
  1121)       782.5  Rx     18EF6305  8  00 49 4A 49 00 00 49 02 
  1122)       783.0  Rx         0162  8  2B 0F E8 0F E7 0F E9 0F 
  1123)       784.9  Rx         010B  8  00 00 AF 0B 00 9E 3F 00 
  1124)       785.2  Rx         0085  8  4A 01 00 00 00 55 31 05 
  1125)       785.4  Rx         0076  8  0F 7A A0 87 DA 3E 00 00 
  1126)       785.6  Rx         00A9  8  53 01 00 00 00 00 00 00 
  1127)       785.9  Rx         00AE  8  78 D2 BE 03 00 00 68 00 
  1128)       786.1  Rx         00B0  8  08 5F BA 8E FE 7F E7 0F 
  1129)       786.4  Rx         0110  8  B1 31 E6 05 80 78 00 80 
  1130)       786.6  Rx         042C  8  00 0E FF 90 FD FF FF FC 
  1131)       787.0  Rx         00A1  8  6C A6 00 00 00 00 00 00 
  1132)       787.2  Rx         00A3  8  95 A6 00 00 00 00 00 00 
  1133)       788.3  Rx         00B1  8  1F 02 FF 00 00 FF 1F 1E 
  1134)       788.4  Rx         0068  1  02 
  1135)       788.7  Rx         027D  8  00 40 01 00 00 00 00 00 
  1136)       791.7  Rx         0113  8  63 01 00 7D 02 00 2F 01 
  1137)       792.9  Rx         0162  8  2C E8 0F E8 0F E8 0F E9 
  1138)       794.9  Rx         013B  8  5A 09 00 00 00 E3 46 04 
  1139)       795.2  Rx         04CC  8  00 00 00 00 00 00 00 00 
  1140)       795.5  Rx         0493  8  23 00 21 00 DD 05 91 7E 
  1141)       795.7  Rx         00D1  8  35 F2 DF 00 20 9F FF 64 
  1142)       797.0  Rx         00B9  8  0A 47 00 00 00 00 FF 32 
  1143)       797.3  Rx         0099  8  0A 17 00 00 00 20 00 20 
  1144)       798.4  Rx         00B1  8  B4 03 FF 00 00 FF 1F 1E 
  1145)       798.6  Rx         0371  8  4B 41 F2 09 3E C5 38 01 
  1146)       801.6  Rx         009C  8  6A 25 48 FF 03 14 00 00 
  1147)       801.9  Rx     18EF6303  8  01 F9 00 00 00 D7 00 03 
  1148)       802.2  Rx     18EF6304  8  01 00 00 00 00 00 00 23 
  1149)       802.5  Rx     18EF6305  8  01 00 00 00 00 00 00 11 
  1150)       803.0  Rx         0162  8  2D 0F E9 0F E9 0F E8 0F 
  1151)       804.9  Rx         010B  8  00 00 AF 0B 00 9E 3F 00 
  1152)       805.2  Rx         0085  8  8C 02 00 00 00 55 31 05 
  1153)       805.4  Rx         00A9  8  51 02 00 00 00 00 00 00 
  1154)       805.7  Rx         00AE  8  53 D3 BE 03 00 00 68 00 
  1155)       805.9  Rx         00B0  8  08 5F BA 8E FE 7F E7 0F 
  1156)       806.1  Rx         0110  8  D9 32 E6 05 80 78 00 80 
  1157)       806.4  Rx         01BD  8  FF FF FF 1F FF FF FF 1F 
  1158)       806.6  Rx         0483  8  00 6F 00 02 70 00 00 C8 
  1159)       806.9  Rx         0076  8  0F 7A A0 87 DA 3E 00 00 
  1160)       807.1  Rx         00A1  8  A1 A7 00 00 00 00 00 00 
  1161)       807.3  Rx         00A3  8  4A A7 00 00 00 00 00 00 
  1162)       808.3  Rx         00B1  8  E2 04 FF 00 00 FF 1F 1E 
  1163)       808.6  Rx         027D  8  00 40 01 00 00 00 00 00 
  1164)       810.6  Rx         0233  8  02 FF 00 00 00 00 00 00 
  1165)       811.7  Rx         0134  8  07 04 30 55 F4 21 00 00 
  1166)       811.9  Rx         0113  8  86 02 00 7D 02 00 2F 01 
  1167)       812.9  Rx         0162  8  2E E9 0F E8 0F E9 0F E8 
  1168)       814.5  Rx         046B  8  00 00 3C 50 50 6D 4C 10 
  1169)       815.6  Rx         00D1  8  18 03 E0 FF 1F 9F FF 64 
  1170)       816.7  Rx         0136  8  00 07 00 04 1C 00 00 00 
  1171)       817.0  Rx         00B9  8  39 48 00 00 00 00 FF 32 
  1172)       817.3  Rx         0099  8  D5 18 00 00 00 20 00 20 
  1173)       818.3  Rx         00B1  8  AF 05 FF 00 00 FF 1F 1E 
  1174)       818.6  Rx         0170  8  FF FF 00 00 00 00 00 00 
  1175)       818.8  Rx         0371  8  01 42 F2 09 3E C5 38 01 
  1176)       820.1  Rx         03C8  8  FF FF FF FF FF FF FF 8F 
  1177)       821.7  Rx         009C  8  64 26 48 FF 03 14 00 00 
  1178)       821.9  Rx         013C  8  FF FF 00 01 5A 17 02 01 
  1179)       822.1  Rx         041A  8  55 01 00 00 00 03 FF 6B 
  1180)       822.4  Rx     18EF6303  8  02 02 01 F1 00 EC 00 00 
  1181)       822.7  Rx     18EF6304  8  02 00 00 4A 4A 4A 1C 0C 
  1182)       823.0  Rx     18EF6305  8  02 01 00 04 00 51 E8 4E 
  1183)       823.2  Rx         0162  8  2F 0F E9 0F E7 0F E7 0F 
  1184)       823.4  Rx         0489  8  00 94 39 80 43 7A 66 00 
  1185)       824.9  Rx         010B  8  00 00 AF 0B 00 9E 3F 00 
  1186)       825.2  Rx         0085  8  0C 03 00 00 00 55 31 05 
  1187)       825.4  Rx         0076  8  0F 8A A0 87 DA 3E 00 00 
  1188)       825.7  Rx         00A9  8  0E 03 00 00 00 00 00 00 
  1189)       825.9  Rx         00AE  8  DC D4 BE 03 00 00 68 00 
  1190)       826.1  Rx         00B0  8  08 5F BA 8E FE 7F E7 0F 
  1191)       826.4  Rx         0110  8  70 33 E6 05 80 78 00 80 
  1192)       827.0  Rx         00A1  8  38 A8 00 00 00 00 00 00 
  1193)       827.2  Rx         00A3  8  38 A8 00 00 00 00 00 00 
  1194)       828.3  Rx         00B1  8  9B 06 FF 00 00 FF 1F 1E 
  1195)       828.5  Rx         027D  8  00 40 01 00 00 00 00 00 
  1196)       831.8  Rx         0113  8  87 03 00 7D 02 00 2F 01 
  1197)       832.9  Rx         0162  8  20 E8 0F E7 0F E7 0F E8 
  1198)       833.3  Rx         02B8  8  FF FF FF FF FF 1F 00 00 
  1199)       835.0  Rx         01E4  8  00 00 00 00 00 00 00 00 
  1200)       835.6  Rx         00D1  8  7D F4 DF FF 1F 9F FF 64 
  1201)       837.0  Rx         00B9  8  CE 49 00 00 00 00 FF 32 
  1202)       837.2  Rx         0099  8  A3 19 00 00 00 20 00 20 
  1203)       838.3  Rx         00B1  8  35 07 FF 00 00 FF 1F 1E 
  1204)       838.6  Rx         0173  8  00 00 00 00 00 00 F0 3F 
  1205)       838.8  Rx         0371  8  F3 43 F2 09 3E C5 38 01 
  1206)       839.5  Rx         0020  8  38 05 40 0C C0 00 00 00 
  1207)       841.7  Rx     18EF6303  8  03 00 00 40 1F 01 02 58 
  1208)       841.9  Rx         009C  8  B6 27 48 FF 03 14 00 00 
  1209)       842.2  Rx     18EF6304  8  03 55 55 55 00 00 00 00 
  1210)       842.5  Rx     18EF6305  8  03 01 00 00 00 00 00 0C 
  1211)       842.9  Rx         0162  8  21 0F E8 0F E7 0F E6 0F 
  1212)       845.0  Rx         010B  8  00 00 AF 0B 00 9E 3F 00 
  1213)       845.2  Rx         0085  8  FF 04 00 00 00 55 31 05 
  1214)       845.4  Rx         0076  8  0E 8A A0 87 DA 3E 00 00 
  1215)       845.7  Rx         00A9  8  B3 04 00 00 00 00 00 00 
  1216)       845.9  Rx         00AE  8  40 D5 BE 03 00 00 68 00 
  1217)       846.1  Rx         00B0  8  08 5F BA 8E FE 7F E7 0F 
  1218)       846.4  Rx         0110  8  09 34 E6 05 80 78 00 80 
  1219)       846.6  Rx         0151  8  60 FF FA 92 00 80 D7 C8 
  1220)       847.0  Rx         00A1  8  3C A9 00 00 00 00 00 00 
  1221)       847.3  Rx         00A3  8  79 A9 00 00 00 00 00 00 
  1222)       848.3  Rx         00B1  8  41 08 FF 00 00 FF 1F 1E 
  1223)       848.5  Rx         027D  8  00 40 01 00 00 00 00 00 
  1224)       850.0  Rx         007F  8  FF 3F FF 1F FF 3F FF 1F 
  1225)       851.7  Rx         0113  8  AC 04 00 7D 02 00 2F 01 
  1226)       852.9  Rx         0162  8  22 E7 0F E8 0F E8 0F E8 
  1227)       855.6  Rx         00D1  8  A2 F5 DF 00 20 9F FF 64 
  1228)       857.0  Rx         00B9  8  56 4A 00 00 00 00 FF 32 
  1229)       857.2  Rx         0099  8  39 1A 00 00 00 20 00 20 
  1230)       858.3  Rx         00B1  8  0C 09 FF 00 00 FF 1F 1E 
  1231)       858.6  Rx         0371  8  06 44 F2 09 3E C5 38 01 
  1232)       861.6  Rx         009C  8  C6 28 48 FF 03 14 00 00 
  1233)       861.9  Rx         00D3  8  13 00 D0 07 00 C0 00 00 
  1234)       862.1  Rx     18EF6303  8  04 13 11 00 13 1D 20 00 
  1235)       862.4  Rx     18EF6304  8  04 07 00 07 00 00 00 00 
  1236)       862.7  Rx     18EF6305  8  04 03 00 03 00 02 00 00 
  1237)       863.0  Rx         0162  8  23 0F E7 0F E6 0F E7 0F 
  1238)       863.3  Rx         02D3  8  7C FF 47 0B 7E 00 40 EF 
  1239)       864.9  Rx         010B  8  00 00 AF 0B 00 9E 3F 00 
  1240)       865.2  Rx         0085  8  B3 05 00 00 00 55 31 05 
  1241)       865.4  Rx         0076  8  0E 8A A0 87 DA 3E 00 00 
  1242)       865.6  Rx         00A9  8  0A 05 00 00 00 00 00 00 
  1243)       865.9  Rx         00AE  8  FD D6 BE 03 00 00 68 00 
  1244)       866.1  Rx         00B0  8  08 5F BA 8E FE 7F E7 0F 
  1245)       866.4  Rx         0110  8  1C 35 E6 05 80 78 00 80 
  1246)       866.7  Rx         0138  8  00 00 43 47 FC 1F 00 00 
  1247)       867.0  Rx         00A1  8  4A AA 00 00 00 00 00 00 
  1248)       867.2  Rx         00A3  8  6E AA 00 00 00 00 00 00 
  1249)       868.3  Rx         00B1  8  38 0A FF 00 00 FF 1F 1E 
  1250)       868.5  Rx         027D  8  00 40 01 00 00 00 00 00 
  1251)       868.8  Rx         02CA  8  FF FF FF 03 00 00 00 00 
  1252)       870.1  Rx     0BA40000  8  20 00 00 00 00 00 00 00 
  1253)       870.3  Rx         045A  8  97 03 E4 E8 02 46 05 CB 
  1254)       871.7  Rx         02BB  8  46 FF 7F FF CF 20 FF 3D 
  1255)       872.0  Rx         0113  8  F7 05 00 7D 02 00 2F 01 
  1256)       872.9  Rx         0162  8  24 E7 0F E8 0F E7 0F E7 
  1257)       875.1  Rx         02CB  8  00 00 3D 3C FF 00 00 00 
  1258)       875.6  Rx         00D1  8  01 F6 DF 00 20 9F FF 64 
  1259)       877.0  Rx         00B9  8  A1 4B 00 00 00 00 FF 32 
  1260)       877.3  Rx         0099  8  4F 1B 00 00 00 20 00 20 
  1261)       878.3  Rx         00B1  8  05 0B FF 00 00 FF 1F 1E 
  1262)       878.6  Rx         0371  8  67 45 F2 09 3E C5 38 01 
  1263)       880.0  Rx     04880001  8  0A 5F 00 00 00 00 00 00 
  1264)       881.6  Rx         009C  8  EB 29 48 FF 03 14 00 00 
  1265)       881.9  Rx     18EF6303  8  05 00 00 00 00 00 00 01 
  1266)       882.2  Rx     18EF6304  8  05 00 00 00 00 00 00 00 
  1267)       882.5  Rx     18EF6305  8  05 10 36 F0 0C 12 00 00 
  1268)       883.0  Rx         0162  8  25 0F E7 0F E7 0F E6 0F 
  1269)       884.9  Rx         010B  8  00 00 AF 0B 00 9E 3F 00 
  1270)       885.2  Rx         0085  8  1D 06 00 00 00 55 31 05 
  1271)       885.4  Rx         0076  8  0E 8A A0 87 DA 3E 00 00 
  1272)       885.7  Rx         00A9  8  4A 06 00 00 00 00 00 00 
  1273)       885.9  Rx         00AE  8  E6 D7 BE 03 00 00 68 00 
  1274)       886.1  Rx         00B0  8  08 5F BA 8E FE 7F E7 0F 
  1275)       886.4  Rx         0110  8  23 36 E6 05 80 78 00 80 
  1276)       887.0  Rx         00A1  8  D1 AB 00 00 00 00 00 00 
  1277)       887.2  Rx         00A3  8  81 AB 00 00 00 00 00 00 
  1278)       888.3  Rx         00B1  8  D9 0C FF 00 00 FF 1F 1E 
  1279)       888.6  Rx         027D  8  00 40 01 00 00 00 00 00 
  1280)       889.5  Rx         0075  8  DF 0B 00 00 00 00 00 00 
  1281)       891.7  Rx         0113  8  4D 06 00 7D 02 00 2F 01 
  1282)       892.9  Rx         0162  8  26 E7 0F E7 0F E7 00 18 
  1283)       895.0  Rx         013B  8  91 0A 00 00 00 E3 46 04 
  1284)       895.2  Rx         03F2  8  FF 01 00 00 00 00 7A FF 
  1285)       895.4  Rx         0493  8  23 00 21 00 DD 05 91 7E 
  1286)       895.7  Rx         00D1  8  EF F7 DF 01 20 9F FF 64 
  1287)       897.0  Rx         00B9  8  C3 4C 00 00 00 00 FF 32 
  1288)       897.3  Rx         0099  8  22 1C 00 00 00 20 00 20 
  1289)       898.3  Rx         00B1  8  F8 0D FF 00 00 FF 1F 1E 
  1290)       898.6  Rx         0371  8  2D 46 F2 09 3E C5 38 01 
  1291)       901.7  Rx         009C  8  44 2A 48 FF 03 14 00 00 
  1292)       901.9  Rx     18EF6303  8  06 BC 02 BC 02 00 00 00 
  1293)       902.2  Rx     18EF6304  8  06 04 00 08 00 00 00 54 
  1294)       902.5  Rx     18EF6305  8  00 49 4A 49 00 00 49 02 
  1295)       902.9  Rx         0162  8  27 00 47 00 47 00 47 00 
  1296)       904.9  Rx         010B  8  00 00 AF 0B 00 9E 3F 00 
  1297)       905.2  Rx         0085  8  28 07 00 00 00 55 31 05 
  1298)       905.4  Rx         00A9  8  80 07 00 00 00 00 00 00 
  1299)       905.7  Rx         00AE  8  98 D8 BE 03 00 00 68 00 
  1300)       905.9  Rx         00B0  8  08 5F BA 8E FE 7F E7 0F 
  1301)       906.1  Rx         0110  8  DD 37 E6 05 80 78 00 80 
  1302)       906.4  Rx         01BD  8  FF FF FF 1F FF FF FF 1F 
  1303)       906.6  Rx         0076  8  0E 8A A0 87 DA 3E 00 00 
  1304)       907.0  Rx         00A1  8  37 AC 00 00 00 00 00 00 
  1305)       907.2  Rx         00A3  8  7F AC 00 00 00 00 00 00 
  1306)       908.3  Rx         00B1  8  7D 0E FF 00 00 FF 1F 1E 
  1307)       908.6  Rx         027D  8  00 40 01 00 00 00 00 00 
  1308)       910.6  Rx         0233  8  02 FF 00 00 00 00 00 00 
  1309)       911.6  Rx         0134  8  07 04 30 55 F4 21 00 00 
  1310)       911.9  Rx         0113  8  44 07 00 7D 02 00 2F 01 
  1311)       912.9  Rx         0162  8  28 46 00 47 00 46 00 47 
  1312)       915.1  Rx         02CC  8  85 37 0E 00 00 64 48 00 
  1313)       915.7  Rx         00D1  8  25 F8 DF 00 20 9F FF 64 
  1314)       916.7  Rx         0136  8  00 07 00 04 1C 00 00 00 
  1315)       917.0  Rx         00B9  8  63 4D 00 00 00 00 FF 32 
  1316)       917.3  Rx         0099  8  27 1D 00 00 00 20 00 20 
  1317)       918.3  Rx         00B1  8  81 0F FF 00 00 FF 1F 1E 
  1318)       918.6  Rx         0170  8  FF FF 00 00 00 00 00 00 
  1319)       918.8  Rx         0371  8  6A 47 F2 09 3E C5 38 01 
  1320)       921.6  Rx         009C  8  BC 2B 48 FF 03 14 00 00 
  1321)       921.9  Rx         013C  8  FF FF 00 01 0A 18 02 01 
  1322)       922.2  Rx     18EF6303  8  07 00 00 00 AC 0D 80 0C 
  1323)       922.4  Rx     18EF6304  8  07 D8 05 83 16 DE 0C 00 
  1324)       922.7  Rx     18EF6305  8  01 00 00 00 00 00 00 1D 
  1325)       923.0  Rx         0162  8  29 00 47 00 46 00 47 00 
  1326)       925.0  Rx         010B  8  00 00 AF 0B 00 9E 3F 00 
  1327)       925.2  Rx         0085  8  D4 08 00 00 00 55 31 05 
  1328)       925.4  Rx         0076  8  0E 8A A0 87 DA 3E 00 00 
  1329)       925.7  Rx         00A9  8  1F 08 00 00 00 00 00 00 
  1330)       925.9  Rx         00AE  8  CB D9 BE 03 00 00 68 00 
  1331)       926.1  Rx         00B0  8  08 5F BA 8E FE 7F E7 0F 
  1332)       926.4  Rx         0110  8  0C 38 E6 05 80 78 00 80 
  1333)       927.0  Rx         00A1  8  1C AD 00 00 00 00 00 00 
  1334)       927.3  Rx         00A3  8  46 AD 00 00 00 00 00 00 
  1335)       928.3  Rx         00B1  8  A3 00 FF 00 00 FF 1F 1E 
  1336)       928.5  Rx         027D  8  00 40 01 00 00 00 00 00 
  1337)       931.8  Rx         0113  8  10 08 00 7D 02 00 2F 01 
  1338)       932.9  Rx         0162  8  2A 46 00 46 00 47 00 46 
  1339)       933.3  Rx         026A  8  9A 01 DE E2 FE FE FF FF 
  1340)       933.5  Rx         02B8  8  FF FF FF FF FF 1F 00 00 
  1341)       934.5  Rx         0309  8  C9 7A 06 7E 00 00 00 10 
  1342)       935.0  Rx         01E4  8  00 00 00 00 00 00 00 00 
  1343)       935.7  Rx         00D1  8  C1 F9 DF 00 20 9F FF 64 
  1344)       937.0  Rx         00B9  8  02 4E 00 00 00 00 FF 32 
  1345)       937.2  Rx         0099  8  CE 1E 00 00 00 20 00 20 
  1346)       938.4  Rx         00B1  8  08 01 FF 00 00 FF 1F 1E 
  1347)       938.6  Rx         0173  8  00 00 00 00 00 00 F0 3F 
  1348)       938.8  Rx         0371  8  CE 48 F2 09 3E C5 38 01 
  1349)       939.5  Rx         0020  8  FE 06 40 0C C0 00 00 00 
  1350)       941.6  Rx         009C  8  73 2C 48 FF 03 14 00 00 
  1351)       941.9  Rx     18EF6303  8  08 00 00 00 00 64 64 64 
  1352)       942.2  Rx     18EF6304  8  00 00 00 00 00 00 00 64 
  1353)       942.5  Rx     18EF6305  8  02 01 00 04 00 51 E8 4E 
  1354)       942.9  Rx         0162  8  2B 00 47 00 47 00 47 00 
  1355)       945.0  Rx         0085  8  AC 09 00 00 00 55 31 05 
  1356)       945.3  Rx         00A9  8  D5 09 00 00 00 00 00 00 
  1357)       945.5  Rx         0076  8  0F 7A A0 87 DA 3E 00 00 
  1358)       945.7  Rx         00AE  8  05 DA BE 03 00 00 68 00 
  1359)       945.9  Rx         00B0  8  08 5F BA 8E FE 7F E7 0F 
  1360)       946.2  Rx         010B  8  00 00 AF 0B 00 9E 3F 00 
  1361)       946.4  Rx         0110  8  E7 39 E6 05 80 78 00 80 
  1362)       946.7  Rx         0151  8  60 FF FA 92 00 80 67 C9 
  1363)       947.0  Rx         00A1  8  6B AE 00 00 00 00 00 00 
  1364)       947.2  Rx         00A3  8  F4 AE 00 00 00 00 00 00 
  1365)       948.3  Rx         00B1  8  1F 02 FF 00 00 FF 1F 1E 
  1366)       948.5  Rx         027D  8  00 40 01 00 00 00 00 00 
  1367)       950.0  Rx         007F  8  FF 3F FF 1F FF 3F FF 1F 
  1368)       950.6  Rx         0161  8  4F 49 02 00 00 00 FF 01 
  1369)       951.7  Rx         0113  8  4B 09 00 7D 02 00 2F 01 
  1370)       952.9  Rx         0162  8  2C 47 00 47 00 47 00 47 
  1371)       955.6  Rx         00D1  8  BA FA DF FF 1F 9F FF 64 
  1372)       957.0  Rx         00B9  8  7F 4F 00 00 00 00 FF 32 
  1373)       957.3  Rx         0099  8  A4 1F 00 00 00 20 00 20 
  1374)       958.3  Rx         00B1  8  B4 03 FF 00 00 FF 1F 1E 
  1375)       958.6  Rx         0371  8  AF 49 F2 09 3E C5 38 01 
  1376)       958.8  Rx         03CC  8  00 00 00 00 00 00 00 3E 
  1377)       961.6  Rx         009C  8  AC 2D 48 FF 03 14 00 00 
  1378)       961.9  Rx         00D3  8  13 00 D0 07 00 C0 00 00 
  1379)       962.2  Rx     18EF6303  8  09 E3 29 01 88 13 00 00 
  1380)       962.5  Rx     18EF6304  8  01 00 00 00 00 00 00 25 
  1381)       962.8  Rx     18EF6305  8  03 01 00 00 00 00 00 0C 
  1382)       963.0  Rx         0162  8  2D 00 46 00 47 00 47 AA 
  1383)       963.3  Rx         02D3  8  7C FF 47 0B 7E 00 80 DF 
  1384)       965.0  Rx         010B  8  00 00 AF 0B 00 9E 3F 00 
  1385)       965.2  Rx         0076  8  0F 7A A0 87 DA 3E 00 00 
  1386)       965.4  Rx         0085  8  02 0A 00 00 00 55 31 05 
  1387)       965.7  Rx         00A9  8  42 0A 00 00 00 00 00 00 
  1388)       965.9  Rx         00AE  8  B8 DB BE 03 00 00 68 00 
  1389)       966.2  Rx         00B0  8  08 5F BA 8E FE 7F E7 0F 
  1390)       966.4  Rx         0110  8  3A 3A E6 05 80 78 00 80 
  1391)       966.6  Rx         02FA  8  FF 00 78 00 80 E0 00 1C 
  1392)       966.9  Rx         0138  8  00 00 43 47 FC 1F 00 00 
  1393)       967.1  Rx         00A1  8  89 AF 00 00 00 00 00 00 
  1394)       967.4  Rx         00A3  8  7D AF 00 00 00 00 00 00 
  1395)       968.3  Rx         00B1  8  E2 04 FF 00 00 FF 1F 1E 
  1396)       968.6  Rx         027D  8  00 40 01 00 00 00 00 00 
  1397)       968.8  Rx         02CA  8  FF FF FF 03 00 00 00 00 
  1398)       970.1  Rx     0BA40000  8  20 00 00 00 00 00 00 00 
  1399)       971.7  Rx         02BB  8  46 FF 7F FF CF 20 FF 3E 
  1400)       972.0  Rx         0113  8  81 0A 00 7D 02 00 2F 01 
  1401)       975.0  Rx         02CB  8  00 00 3D 3C FF 00 00 00 
  1402)       975.6  Rx         00D1  8  00 FB DF FF 1F 9F FF 64 
  1403)       977.0  Rx         00B9  8  8D 40 00 00 00 00 FF 32 
  1404)       977.3  Rx         0099  8  EA 10 00 00 00 20 00 20 
  1405)       978.3  Rx         00B1  8  AF 05 FF 00 00 FF 1F 1E 
  1406)       978.5  Rx         0371  8  E5 4A F2 09 3E C5 38 01 
  1407)       980.1  Rx     04880001  8  0A 5F 00 00 00 00 00 00 
  1408)       981.7  Rx         009C  8  AA 2E 48 FF 03 14 00 00 
  1409)       981.9  Rx     18EF6303  8  0A 80 0C 00 00 00 00 20 
  1410)       982.2  Rx     18EF6304  8  02 00 00 4A 4A 4A 1C 0C 
  1411)       982.5  Rx     18EF6305  8  04 03 00 03 00 02 00 00 
  1412)       984.9  Rx         010B  8  00 00 AF 0B 00 9E 3F 00 
  1413)       985.2  Rx         0085  8  60 0B 00 00 00 55 31 05 
  1414)       985.4  Rx         0076  8  0F 7A A0 87 DA 3E 00 00 
  1415)       985.7  Rx         00A9  8  88 0B 00 00 00 00 00 00 
  1416)       985.9  Rx         00AE  8  32 DC BE 03 00 00 68 00 
  1417)       986.1  Rx         00B0  8  08 5F BA 8E FE 7F E7 0F 
  1418)       986.4  Rx         0110  8  9A 3B E6 05 80 78 00 80 
  1419)       987.0  Rx         00A1  8  E7 A0 00 00 00 00 00 00 
  1420)       987.2  Rx         00A3  8  77 A0 00 00 00 00 00 00 
  1421)       988.3  Rx         00B1  8  9B 06 FF 00 00 FF 1F 1E 
  1422)       988.4  Rx         0068  1  02 
  1423)       988.7  Rx         027D  8  00 40 01 00 00 00 00 00 
  1424)       991.7  Rx         0113  8  3C 0B 00 7D 02 00 2F 01 
  1425)       995.0  Rx         013B  8  09 0B 00 00 00 E3 46 04 
  1426)       995.2  Rx         0493  8  23 00 21 00 DD 05 91 7E 
  1427)       995.7  Rx         00D1  8  73 FC DF FF 1F 9F FF 64 
  1428)       997.0  Rx         00B9  8  DD 41 00 00 00 00 FF 32 
  1429)       997.3  Rx         0099  8  EF 11 00 00 00 20 00 20 
  1430)       998.3  Rx         00B1  8  35 07 FF 00 00 FF 1F 1E 
  1431)       998.6  Rx     0BE00000  8  D1 03 FE 3F 08 00 00 00 
  1432)       998.9  Rx         0371  8  7B 4B F2 09 3E C5 38 01 
  1433)      1001.6  Rx         009C  8  F9 2F 48 FF 03 14 00 00 
  1434)      1001.9  Rx     18EF6303  8  0B 00 00 00 00 00 00 06 
  1435)      1002.2  Rx     18EF6304  8  03 55 55 55 00 00 00 00 
  1436)      1002.5  Rx     18EF6305  8  05 10 36 F0 0C 12 00 00 
  1437)      1005.0  Rx         010B  8  00 00 AF 0B 00 9E 3F 00 
  1438)      1005.2  Rx         0085  8  9A 0C 00 00 00 55 31 05 
  1439)      1005.4  Rx         00A9  8  46 0C 00 00 00 00 00 00 
  1440)      1005.7  Rx         00AE  8  6A DD BE 03 00 00 68 00 
  1441)      1005.9  Rx         00B0  8  08 5F BA 8E FE 7F E7 0F 
  1442)      1006.1  Rx         0110  8  44 3C E6 05 80 78 00 80 
  1443)      1006.4  Rx         01BD  8  FF FF FF 1F FF FF FF 1F 
  1444)      1006.6  Rx         0076  8  0F 7A A0 87 DA 3E 00 00 
  1445)      1007.0  Rx         00A1  8  BA A1 00 00 00 00 00 00 
  1446)      1007.2  Rx         00A3  8  4E A1 00 00 00 00 00 00 
  1447)      1008.3  Rx         00B1  8  41 08 FF 00 00 FF 1F 1E 
  1448)      1008.5  Rx         027D  8  00 40 01 00 00 00 00 00 
  1449)      1010.6  Rx         0233  8  02 FF 00 00 00 00 00 00 
  1450)      1011.7  Rx         0134  8  07 04 30 55 F4 21 00 00 
  1451)      1011.9  Rx         0113  8  DA 0C 00 7D 02 00 2F 01 
  1452)      1014.5  Rx         046B  8  00 00 3C 50 50 6D 4C 10 
  1453)      1015.7  Rx         00D1  8  2B FD DF FF 1F 9F FF 64 
  1454)      1016.7  Rx         0136  8  00 07 00 04 1C 00 00 00 
  1455)      1016.9  Rx         0312  8  00 A9 00 EF 00 5A E1 07 
  1456)      1017.2  Rx         0099  8  F8 12 00 00 00 20 00 20 
  1457)      1017.4  Rx         00B9  8  E2 42 00 00 00 00 FF 32 
  1458)      1018.3  Rx         00B1  8  0C 09 FF 00 00 FF 1F 1E 
  1459)      1018.6  Rx         0170  8  FF FF 00 00 00 00 00 00 
  1460)      1018.8  Rx         0371  8  6D 4C F2 09 3E C5 38 01 
  1461)      1021.7  Rx         009C  8  E3 20 48 FF 03 14 00 00 
  1462)      1021.9  Rx         013C  8  FF FF 00 01 15 19 02 01 
  1463)      1022.2  Rx     18EF6303  8  0C 57 30 D8 00 D8 00 06 
  1464)      1022.5  Rx     18EF6304  8  04 06 00 07 00 00 00 00 
  1465)      1022.7  Rx     18EF6305  8  00 49 48 49 00 00 49 02 
  1466)      1023.3  Rx         0489  8  00 94 39 80 43 7A 66 00 
  1467)      1024.9  Rx         010B  8  00 00 AF 0B 00 9E 3F 00 
  1468)      1025.2  Rx         0085  8  3D 0D 00 00 00 55 31 05 
  1469)      1025.4  Rx         0076  8  0E 7A A0 87 DA 3E 00 00 
  1470)      1025.6  Rx         00A9  8  8C 0D 00 00 00 00 00 00 
  1471)      1025.9  Rx         00AE  8  17 DE BE 03 00 00 68 00 
  1472)      1026.1  Rx         00B0  8  08 5F BA 8E FE 7F E7 0F 
  1473)      1026.4  Rx         0110  8  4A 3D E6 05 80 78 00 80 
  1474)      1027.0  Rx         00A1  8  90 A2 00 00 00 00 00 00 
  1475)      1027.2  Rx         00A3  8  D2 A2 00 00 00 00 00 00 
  1476)      1028.3  Rx         003F  8  34 7D 00 00 03 00 FC 5F 
  1477)      1028.5  Rx         00B1  8  38 0A FF 00 00 FF 1F 1E 
  1478)      1028.8  Rx         027D  8  00 40 01 00 00 00 00 00 
  1479)      1029.1  Rx     0BE40000  8  93 03 FE 3F 00 00 00 00 
  1480)      1031.8  Rx         0113  8  78 0D 00 7D 02 00 2F 01 
  1481)      1033.3  Rx         02B8  8  FF FF FF FF FF 1F 00 00 
  1482)      1035.0  Rx         01E4  8  00 00 00 00 00 00 00 00 
  1483)      1035.1  Rx         02CE  2  3F 00 
  1484)      1035.6  Rx         00D1  8  95 FE DF 00 20 9F FF 64 
  1485)      1037.0  Rx         00B9  8  F7 43 00 00 00 00 FF 32 
  1486)      1037.2  Rx         0099  8  8E 13 00 00 00 20 00 20 
  1487)      1038.3  Rx         00B1  8  05 0B FF 00 00 FF 1F 1E 
  1488)      1038.6  Rx         0173  8  00 00 00 00 00 00 F0 3F 
