;$FILEVERSION=1.1
;$STARTTIME=45854.8346130208
;
;   Start time: 16/07/2025 20:01:50.565.0
;   Generated by PCAN-View v5.3.2.952
;
;   Message Number
;   |         Time Offset (ms)
;   |         |        Type
;   |         |        |        ID (hex)
;   |         |        |        |     Data Length
;   |         |        |        |     |   Data Bytes (hex) ...
;   |         |        |        |     |   |
;---+--   ----+----  --+--  ----+---  +  -+ -- -- -- -- -- -- --
     1)         1.6  Rx         0136  8  00 07 00 04 1C 00 00 00 
     2)         2.1  Rx         00B1  8  81 0F FF 00 00 FF 1F 1E 
     3)         2.4  Rx     0BE00000  8  56 05 FE 3F 08 00 00 00 
     4)         2.7  Rx         0371  8  8C 4F F2 09 3E 3D 3B 01 
     5)         2.9  Rx         0162  8  24 E9 0F E9 0F EA 0F E9 
     6)         3.1  Rx         00D1  8  DB 0C E0 FF DF 9E FF 64 
     7)         5.8  Rx         00A1  8  4A AA 00 00 00 00 00 00 
     8)         6.0  Rx         00A3  8  6E AA 00 00 00 00 00 00 
     9)         6.6  Rx         009C  8  8D 21 48 FF 03 14 00 00 
    10)         8.4  Rx         0312  8  00 A5 02 EF 00 69 EA 07 
    11)         8.9  Rx         0085  8  90 00 00 00 00 55 31 05 
    12)         9.1  Rx         00A9  8  EA 00 00 00 00 00 00 00 
    13)         9.3  Rx         00AE  8  90 D1 BE 03 00 00 68 00 
    14)         9.6  Rx         0110  8  A4 30 E6 05 80 78 00 80 
    15)         9.8  Rx         0113  8  DA 0C 00 7D 02 00 2F 01 
    16)        10.1  Rx         0483  8  00 6F 00 02 70 00 00 C8 
    17)        12.1  Rx         00B1  8  A3 00 FF 00 00 FF 1F 1E 
    18)        12.4  Rx         027D  8  00 40 01 00 00 00 00 00 
    19)        12.9  Rx         0162  8  25 0F EA 0F EA 0F EA 0F 
    20)        13.3  Rx         0309  8  C9 7A 06 7E 00 00 00 10 
    21)        13.6  Rx         010B  8  00 00 AF 0B 00 9E 3F 00 
    22)        13.8  Rx         0076  8  0F 7A A0 87 DA 3E 00 00 
    23)        14.1  Rx         00B0  8  08 5F BA 8E FE 7F E7 0F 
    24)        15.8  Rx         00B9  8  A1 4B 00 00 00 00 FF 32 
    25)        16.1  Rx         0099  8  4F 1B 00 00 00 20 00 20 
    26)        19.0  Rx     18EF6303  8  06 BC 02 BC 02 00 00 00 
    27)        19.3  Rx         00D3  8  13 00 D0 07 00 C0 00 00 
    28)        19.6  Rx     18EF6304  8  04 00 00 00 00 00 00 00 
    29)        19.9  Rx     18EF6305  8  00 48 48 48 00 00 49 00 
    30)        20.2  Rx         0412  8  E9 62 29 0E 3B 8E 63 10 
    31)        22.1  Rx         00B1  8  08 01 FF 00 00 FF 1F 1E 
    32)        22.4  Rx         0170  8  FF FF 00 00 00 00 00 00 
    33)        22.6  Rx         0371  8  AF 40 F2 09 3E 3D 3B 01 
    34)        22.9  Rx         0162  8  26 EA 0F E9 0F EA 0F EA 
    35)        23.1  Rx         00D1  8  83 0D E0 FF DF 9E FF 64 
    36)        25.8  Rx         00A1  8  D1 AB 00 00 00 00 00 00 
    37)        26.1  Rx         00A3  8  81 AB 00 00 00 00 00 00 
    38)        26.7  Rx         009C  8  DC 22 48 FF 03 14 00 00 
    39)        27.1  Rx         0489  8  00 34 38 82 43 6F 66 00 
    40)        28.5  Rx         013B  8  09 0B 00 00 00 E3 46 04 
    41)        28.9  Rx         0085  8  4A 01 00 00 00 55 31 05 
    42)        29.1  Rx         00A9  8  53 01 00 00 00 00 00 00 
    43)        29.3  Rx         00AE  8  78 D2 BE 03 00 00 68 00 
    44)        29.6  Rx         0110  8  B1 31 E6 05 80 78 00 80 
    45)        29.8  Rx         0113  8  78 0D 00 7D 02 00 2F 01 
    46)        30.1  Rx         007F  8  FF 3F FF 1F FF 3F FF 1F 
    47)        30.3  Rx         02BB  8  44 FF 7F FF CF 20 FF 3D 
    48)        32.1  Rx         00B1  8  1F 02 FF 00 00 FF 1F 1E 
    49)        32.4  Rx         027D  8  00 40 01 00 00 00 00 00 
    50)        32.7  Rx     0BE40000  8  F1 05 FE 3F 00 00 00 00 
    51)        32.9  Rx         0162  8  27 0F EA 0F EA 0F EA 0F 
    52)        35.8  Rx         00B9  8  C3 4C 00 00 00 00 FF 32 
    53)        36.1  Rx         0099  8  22 1C 00 00 00 20 00 20 
    54)        37.1  Rx         02B8  8  FF FF FF FF FF 1F 00 00 
    55)        38.0  Rx         0161  8  4B 48 01 00 00 00 FF 01 
    56)        38.3  Rx         0020  8  EE 00 40 0C C0 00 00 00 
    57)        38.6  Rx         010B  8  00 00 AF 0B 00 9E 3F 00 
    58)        38.8  Rx         0076  8  0E 8A A0 87 DA 3E 00 00 
    59)        39.0  Rx         00B0  8  08 5F BA 8E FE 7F E7 0F 
    60)        39.3  Rx         01E4  8  00 00 00 00 00 00 00 00 
    61)        39.6  Rx     18EF6303  8  07 00 00 00 AC 0D 80 0C 
    62)        39.9  Rx     18EF6304  8  05 00 00 00 00 00 00 00 
    63)        40.2  Rx     18EF6305  8  01 00 00 00 00 00 00 07 
    64)        42.1  Rx         00B1  8  B4 03 FF 00 00 FF 1F 1E 
    65)        42.4  Rx         0173  8  00 00 00 00 00 00 F0 3F 
    66)        42.6  Rx         0371  8  CE 41 F2 09 3E 3D 3B 01 
    67)        42.9  Rx         0162  8  28 E7 0F E6 0F E8 0F E6 
    68)        43.1  Rx         00D1  8  3D 0E E0 00 E0 9E FF 64 
    69)        45.8  Rx         00A1  8  37 AC 00 00 00 00 00 00 
    70)        46.1  Rx         00A3  8  7F AC 00 00 00 00 00 00 
    71)        46.6  Rx         009C  8  C7 23 48 FF 03 14 00 00 
    72)        48.8  Rx         0085  8  8C 02 00 00 00 55 31 05 
    73)        49.1  Rx         00A9  8  51 02 00 00 00 00 00 00 
    74)        49.3  Rx         00AE  8  53 D3 BE 03 00 00 68 00 
    75)        49.6  Rx         0110  8  D9 32 E6 05 80 78 00 80 
    76)        49.8  Rx         0113  8  B1 0E 00 7D 02 00 2F 01 
    77)        50.0  Rx         0151  8  60 FF FA 92 00 80 AE CE 
    78)        50.3  Rx     0BA40000  8  20 00 00 00 00 00 00 00 
    79)        51.7  Rx         0138  8  00 00 44 45 FC 1F 00 00 
    80)        52.1  Rx         00B1  8  E2 04 FF 00 00 FF 1F 1E 
    81)        52.4  Rx         027D  8  00 40 01 00 00 00 00 00 
    82)        52.8  Rx         0162  8  29 0F E7 0F E8 0F E6 0F 
    83)        55.1  Rx         02CB  8  00 00 3D 3C FF 2A 00 00 
    84)        55.4  Rx         02DA  8  FF 3F 64 04 50 03 B4 19 
    85)        55.8  Rx         00B9  8  63 4D 00 00 00 00 FF 32 
    86)        56.0  Rx         0099  8  27 1D 00 00 00 20 00 20 
    87)        58.4  Rx         010B  8  00 00 AF 0B 00 9E 3F 00 
    88)        58.6  Rx         0076  8  0E 7A A0 87 DA 3E 00 00 
    89)        58.8  Rx         00B0  8  08 5F BA 8E FE 7F E7 0F 
    90)        59.1  Rx     18EF6303  8  08 00 00 00 00 64 64 64 
    91)        59.4  Rx     18EF6304  8  06 00 00 00 00 00 00 54 
    92)        59.7  Rx     18EF6305  8  02 00 00 04 00 01 E8 4E 
    93)        60.1  Rx     04880001  8  0A 5F 00 00 00 00 00 00 
    94)        62.1  Rx         00B1  8  AF 05 FF 00 00 FF 1F 1E 
    95)        62.4  Rx         0371  8  84 42 F2 09 3E 3D 3B 01 
    96)        62.9  Rx         0162  8  2A E7 0F E8 0F E6 0F E8 
    97)        63.1  Rx         00D1  8  68 FF DF 00 E0 9E FF 64 
    98)        65.8  Rx         00A1  8  1C AD 00 00 00 00 00 00 
    99)        66.0  Rx         00A3  8  46 AD 00 00 00 00 00 00 
   100)        66.6  Rx         009C  8  2E 24 48 FF 03 14 00 00 
   101)        67.1  Rx         02D3  8  7A FF 47 0B 7E 00 80 DF 
   102)        67.3  Rx         0068  1  02 
   103)        68.8  Rx         0085  8  0C 03 00 00 00 55 31 05 
   104)        69.1  Rx         00A9  8  0E 03 00 00 00 00 00 00 
   105)        69.3  Rx         00AE  8  DC D4 BE 03 00 00 68 00 
   106)        69.5  Rx         0110  8  70 33 E6 05 80 78 00 80 
   107)        69.8  Rx         0113  8  14 0F 00 7D 02 00 2F 01 
   108)        72.1  Rx         00B1  8  9B 06 FF 00 00 FF 1F 1E 
   109)        72.4  Rx         027D  8  00 40 01 00 00 00 00 00 
   110)        72.6  Rx         02CA  8  FF FF FF 03 00 00 00 00 
   111)        72.9  Rx         0162  8  2B 0F E7 0F E7 0F E8 0F 
   112)        75.2  Rx         0493  8  23 00 21 00 DD 05 91 7E 
   113)        75.8  Rx         00B9  8  02 4E 00 00 00 00 FF 32 
   114)        76.1  Rx         0099  8  CE 1E 00 00 00 20 00 20 
   115)        78.3  Rx         010B  8  00 00 AF 0B 00 9E 3F 00 
   116)        78.6  Rx         0076  8  0F 7A A0 87 DA 3E 00 00 
   117)        78.8  Rx         00B0  8  08 5F BA 8E FE 7F E7 0F 
   118)        79.1  Rx         013C  8  FF FF 00 01 CE 1C 02 01 
   119)        79.3  Rx         041A  8  55 01 00 00 00 03 FF 6B 
   120)        79.6  Rx     18EF6303  8  09 E3 29 01 88 13 00 00 
   121)        79.9  Rx     18EF6304  8  07 D7 05 95 16 DB 0C 00 
   122)        80.2  Rx     18EF6305  8  03 00 00 00 00 00 00 0C 
   123)        82.1  Rx         00B1  8  35 07 FF 00 00 FF 1F 1E 
   124)        82.4  Rx         0371  8  76 43 F2 09 3E 3D 3B 01 
   125)        82.8  Rx         0162  8  2C E9 0F E8 0F E9 0F E8 
   126)        83.1  Rx         00D1  8  2B F0 DF 00 E0 9E FF 64 
   127)        85.0  Rx         01BD  8  FF FF FF 1F FF FF FF 1F 
   128)        85.8  Rx         00A1  8  6B AE 00 00 00 00 00 00 
   129)        86.0  Rx         00A3  8  F4 AE 00 00 00 00 00 00 
   130)        86.6  Rx         009C  8  6A 25 48 FF 03 14 00 00 
   131)        88.3  Rx     12940000  8  D8 C2 FF FF 3F 00 C8 00 
   132)        88.9  Rx         0085  8  FF 04 00 00 00 55 31 05 
   133)        89.1  Rx         00A9  8  B3 04 00 00 00 00 00 00 
   134)        89.3  Rx         00AE  8  40 D5 BE 03 00 00 68 00 
   135)        89.6  Rx         0110  8  09 34 E6 05 80 78 00 80 
   136)        89.8  Rx         0113  8  84 00 00 7D 02 00 2F 01 
   137)        92.1  Rx         00B1  8  41 08 FF 00 00 FF 1F 1E 
   138)        92.4  Rx         027D  8  00 40 01 00 00 00 00 00 
   139)        92.9  Rx         0162  8  2D 0F E8 0F E9 0F E9 0F 
   140)        95.8  Rx         00B9  8  7F 4F 00 00 00 00 FF 32 
   141)        96.1  Rx         0099  8  A4 1F 00 00 00 20 00 20 
   142)        96.7  Rx         0134  8  02 84 30 55 F4 21 00 00 
   143)        98.1  Rx         0233  8  02 FF 00 00 00 00 00 00 
   144)        98.4  Rx         010B  8  00 00 AF 0B 00 9E 3F 00 
   145)        98.6  Rx         0076  8  0F 8A A0 87 DA 3E 00 00 
   146)        98.8  Rx         03F2  8  FF 01 00 00 00 00 7A FF 
   147)        99.1  Rx         00B0  8  08 5F BA 8E FE 7F E7 0F 
   148)        99.4  Rx     18EF6303  8  0A 80 0C 00 00 00 00 20 
   149)        99.7  Rx     18EF6304  8  00 00 00 04 00 00 00 64 
   150)       100.0  Rx     18EF6305  8  04 03 00 03 00 03 00 00 
   151)       100.2  Rx         03C8  8  FF FF FF FF FF FF FF 8F 
   152)       101.7  Rx         0136  8  00 07 00 04 1C 00 00 00 
   153)       102.1  Rx         00B1  8  0C 09 FF 00 00 FF 1F 1E 
   154)       102.4  Rx         0371  8  83 44 F2 09 3E 3D 3B 01 
   155)       102.9  Rx         0162  8  2E E8 0F E9 0F E8 0F E8 
   156)       103.1  Rx         00D1  8  2F F1 DF 00 E0 9E FF 64 
   157)       105.8  Rx         00A1  8  89 AF 00 00 00 00 00 00 
   158)       106.1  Rx         00A3  8  7D AF 00 00 00 00 00 00 
   159)       106.7  Rx         009C  8  64 26 48 FF 03 14 00 00 
   160)       108.8  Rx         0085  8  B3 05 00 00 00 55 31 05 
   161)       109.1  Rx         00A9  8  0A 05 00 00 00 00 00 00 
   162)       109.3  Rx         00AE  8  FD D6 BE 03 00 00 68 00 
   163)       109.6  Rx         0110  8  1C 35 E6 05 80 78 00 80 
   164)       109.8  Rx         0113  8  63 01 00 7D 02 00 2F 01 
   165)       112.1  Rx         00B1  8  38 0A FF 00 00 FF 1F 1E 
   166)       112.4  Rx         027D  8  00 40 01 00 00 00 00 00 
   167)       112.9  Rx         0162  8  2F 0F E8 0F E8 0F E6 0F 
   168)       115.8  Rx         00B9  8  8D 40 00 00 00 00 FF 32 
   169)       116.1  Rx         0099  8  EA 10 00 00 00 20 00 20 
   170)       118.3  Rx         010B  8  00 00 AF 0B 00 9E 3F 00 
   171)       118.6  Rx         0076  8  0E 8A A0 87 DA 3E 00 00 
   172)       118.9  Rx         00B0  8  08 5F BA 8E FE 7F E7 0F 
   173)       119.1  Rx         00D3  8  13 00 D0 07 00 C0 00 00 
   174)       119.4  Rx     18EF6303  8  0B 00 00 00 00 00 00 06 
   175)       119.7  Rx     18EF6304  8  01 00 00 00 00 00 00 36 
   176)       120.0  Rx     18EF6305  8  05 38 36 F0 0C 12 00 00 
   177)       122.1  Rx         00B1  8  05 0B FF 00 00 FF 1F 1E 
   178)       122.4  Rx         0170  8  FF FF 00 00 00 00 00 00 
   179)       122.6  Rx         0371  8  E2 45 F2 09 3E 3D 3B 01 
   180)       122.9  Rx         0162  8  20 E7 0F E8 0F E8 0F E7 
   181)       123.1  Rx         00D1  8  EB F2 DF 01 E0 9E FF 64 
   182)       125.8  Rx         00A1  8  E7 A0 00 00 00 00 00 00 
   183)       126.0  Rx         00A3  8  77 A0 00 00 00 00 00 00 
   184)       126.6  Rx         009C  8  B6 27 48 FF 03 14 00 00 
   185)       128.5  Rx         013B  8  8B 0C 00 00 00 E3 46 04 
   186)       128.9  Rx         0085  8  1D 06 00 00 00 55 31 05 
   187)       129.1  Rx         00A9  8  4A 06 00 00 00 00 00 00 
   188)       129.3  Rx         00AE  8  E6 D7 BE 03 00 00 68 00 
   189)       129.6  Rx         0110  8  23 36 E6 05 80 78 00 80 
   190)       129.8  Rx         0113  8  86 02 00 7D 02 00 2F 01 
   191)       130.1  Rx         02BB  8  44 FF 7F FF CF 20 FF 3D 
   192)       130.3  Rx         007F  8  FF 3F FF 1F FF 3F FF 1F 
   193)       132.1  Rx         00B1  8  D9 0C FF 00 00 FF 1F 1E 
   194)       132.3  Rx         027D  8  00 40 01 00 00 00 00 00 
   195)       132.8  Rx         0162  8  21 0F E7 0F E8 0F E8 0F 
   196)       133.3  Rx         046B  8  00 00 3C 50 50 B8 4C 10 
   197)       135.8  Rx         00B9  8  DD 41 00 00 00 00 FF 32 
   198)       136.0  Rx         0099  8  EF 11 00 00 00 20 00 20 
   199)       137.1  Rx         026A  8  6F 01 DC E2 FE FE FF FF 
   200)       137.4  Rx         02B8  8  FF FF FF FF FF 1F 00 00 
   201)       138.3  Rx         0020  8  DC 01 40 0C C0 00 00 00 
   202)       138.6  Rx         010B  8  00 00 AF 0B 00 9E 3F 00 
   203)       138.8  Rx         0076  8  0E 8A A0 87 DA 3E 00 00 
   204)       139.0  Rx         00B0  8  08 5F BA 8E FE 7F E7 0F 
   205)       139.3  Rx         01E4  8  00 00 00 00 00 00 00 00 
   206)       139.5  Rx     18EF6303  8  0C C5 2F D6 00 D6 00 06 
   207)       139.8  Rx     18EF6304  8  02 00 00 49 49 49 E4 0C 
   208)       140.1  Rx     18EF6305  8  00 48 48 48 00 00 48 00 
   209)       142.1  Rx         00B1  8  F8 0D FF 00 00 FF 1F 1E 
   210)       142.4  Rx         0173  8  00 00 00 00 00 00 F0 3F 
   211)       142.6  Rx         0371  8  A8 46 F2 09 3E 3D 3B 01 
   212)       142.9  Rx         0162  8  22 E7 0F E7 0F E8 0F E8 
   213)       143.1  Rx         00D1  8  5D F3 DF 00 E0 9E FF 64 
   214)       145.8  Rx         00A1  8  BA A1 00 00 00 00 00 00 
   215)       146.0  Rx         00A3  8  4E A1 00 00 00 00 00 00 
   216)       146.6  Rx         009C  8  C6 28 48 FF 03 14 00 00 
   217)       148.8  Rx         0085  8  28 07 00 00 00 55 31 05 
   218)       149.1  Rx         00A9  8  80 07 00 00 00 00 00 00 
   219)       149.3  Rx         00AE  8  98 D8 BE 03 00 00 68 00 
   220)       149.5  Rx         0110  8  DD 37 E6 05 80 78 00 80 
   221)       149.8  Rx         0113  8  87 03 00 7D 02 00 2F 01 
   222)       150.0  Rx         0151  8  60 FF FA 92 00 80 88 CF 
   223)       150.3  Rx     0BA40000  8  20 00 00 00 00 00 00 00 
   224)       150.6  Rx         045A  8  97 C3 E5 E8 02 46 15 CB 
   225)       151.7  Rx         0138  8  00 00 44 45 FC 1F 00 00 
   226)       152.1  Rx         00B1  8  7D 0E FF 00 00 FF 1F 1E 
   227)       152.3  Rx         027D  8  00 40 01 00 00 00 00 00 
   228)       152.9  Rx         0162  8  23 0F E7 0F E6 0F E7 0F 
   229)       155.1  Rx         02CB  8  00 00 3D 3C FF 2A 00 00 
   230)       155.8  Rx         00B9  8  E2 42 00 00 00 00 FF 32 
   231)       156.1  Rx         0099  8  F8 12 00 00 00 20 00 20 
   232)       158.4  Rx         010B  8  00 00 AF 0B 00 9E 3F 00 
   233)       158.6  Rx         0076  8  0E 8A A0 87 DA 3E 00 00 
   234)       158.8  Rx         00B0  8  08 5F BA 8E FE 7F E7 0F 
   235)       159.1  Rx     18EF6303  8  0D 00 00 40 1F AC 0D 00 
   236)       159.4  Rx     18EF6304  8  03 00 00 00 00 00 00 00 
   237)       159.7  Rx     18EF6305  8  01 00 00 00 00 00 00 13 
   238)       160.1  Rx     04880001  8  0A 5F 00 00 00 00 00 00 
   239)       162.2  Rx         00B1  8  81 0F FF 00 00 FF 1F 1E 
   240)       162.4  Rx         0371  8  EF 47 F2 09 3E 3D 3B 01 
   241)       162.6  Rx         03CC  8  00 00 00 00 00 00 00 3D 
   242)       162.9  Rx         0162  8  24 E6 0F E7 0F E7 0F E7 
   243)       163.1  Rx         00D1  8  D5 04 E0 FF DF 9E FF 64 
   244)       165.8  Rx         00A1  8  90 A2 00 00 00 00 00 00 
   245)       166.0  Rx         00A3  8  D2 A2 00 00 00 00 00 00 
   246)       166.6  Rx         009C  8  EB 29 48 FF 03 14 00 00 
   247)       167.1  Rx         02D3  8  7A FF 47 0B 7E 00 60 CF 
   248)       168.8  Rx         0085  8  D4 08 00 00 00 55 31 05 
   249)       169.1  Rx         00A9  8  1F 08 00 00 00 00 00 00 
   250)       169.3  Rx         00AE  8  CB D9 BE 03 00 00 68 00 
   251)       169.5  Rx         0110  8  0C 38 E6 05 80 78 00 80 
   252)       169.8  Rx         0113  8  AC 04 00 7D 02 00 2F 01 
   253)       170.1  Rx         02FA  8  FF 00 78 00 80 E0 00 1C 
   254)       172.1  Rx         00B1  8  A3 00 FF 00 00 FF 1F 1E 
   255)       172.4  Rx         027D  8  00 40 01 00 00 00 00 00 
   256)       172.6  Rx         02CA  8  FF FF FF 03 00 00 00 00 
   257)       172.9  Rx         0162  8  25 0F E6 0F E8 0F E7 0F 
   258)       175.1  Rx         0493  8  23 00 21 00 DD 05 91 7E 
   259)       175.8  Rx         00B9  8  F7 43 00 00 00 00 FF 32 
   260)       176.1  Rx         0099  8  8E 13 00 00 00 20 00 20 
   261)       178.3  Rx         010B  8  00 00 AF 0B 00 9E 3F 00 
   262)       178.6  Rx         0076  8  0E 8A A0 87 DA 3E 00 00 
   263)       178.8  Rx         00B0  8  08 5F BA 8E FE 7F E7 0F 
   264)       179.1  Rx         013C  8  FF FF 00 01 28 1D 02 01 
   265)       179.4  Rx     18EF6303  8  0E 54 0D AC 0D 40 1F 00 
   266)       179.7  Rx     18EF6304  8  04 00 00 00 00 00 00 00 
   267)       179.9  Rx     18EF6305  8  02 00 00 04 00 01 E8 4E 
   268)       182.1  Rx         00B1  8  08 01 FF 00 00 FF 1F 1E 
   269)       182.4  Rx         0371  8  4B 48 F2 09 3E 3D 3B 01 
   270)       182.9  Rx         0162  8  26 E7 0F E7 0F E8 00 18 
   271)       183.1  Rx         00D1  8  0A 05 E0 00 E0 9E FF 64 
   272)       185.0  Rx         01BD  8  FF FF FF 1F FF FF FF 1F 
   273)       185.8  Rx         00A1  8  2F A3 00 00 00 00 00 00 
   274)       186.1  Rx         00A3  8  75 A3 00 00 00 00 00 00 
   275)       186.6  Rx         009C  8  44 2A 48 FF 03 14 00 00 
   276)       188.8  Rx         0085  8  AC 09 00 00 00 55 31 05 
   277)       189.1  Rx         00A9  8  D5 09 00 00 00 00 00 00 
   278)       189.3  Rx         00AE  8  05 DA BE 03 00 00 68 00 
   279)       189.6  Rx         0110  8  E7 39 E6 05 80 78 00 80 
   280)       189.8  Rx         0113  8  F7 05 00 7D 02 00 2F 01 
   281)       192.1  Rx         00B1  8  1F 02 FF 00 00 FF 1F 1E 
   282)       192.4  Rx         027D  8  00 40 01 00 00 00 00 00 
   283)       192.9  Rx         0162  8  27 00 47 00 47 00 47 00 
   284)       195.1  Rx         02CC  8  85 37 0E 00 00 6E 49 00 
   285)       195.8  Rx         00B9  8  20 44 00 00 00 00 FF 32 
   286)       196.1  Rx         0099  8  05 14 00 00 00 20 00 20 
   287)       196.6  Rx         0134  8  02 84 30 55 F4 21 00 00 
   288)       198.1  Rx         0233  8  02 FF 00 00 00 00 00 00 
   289)       198.3  Rx         010B  8  00 00 AF 0B 00 9E 3F 00 
   290)       198.6  Rx         0076  8  0E 8A A0 87 DA 3E 00 00 
   291)       198.8  Rx         00B0  8  08 5F BA 8E FE 7F E7 0F 
   292)       199.1  Rx     18EF6303  8  0F 00 D6 0C 65 0B 01 70 
   293)       199.4  Rx     18EF6304  8  05 00 00 00 00 00 00 00 
   294)       199.7  Rx     18EF6305  8  03 00 00 00 00 00 00 0C 
   295)       201.6  Rx         0136  8  00 07 00 04 1C 00 00 00 
   296)       202.1  Rx         00B1  8  B4 03 FF 00 00 FF 1F 1E 
   297)       202.4  Rx         0371  8  2A 49 F2 09 3E 3D 3B 01 
   298)       202.9  Rx         0162  8  28 46 00 47 00 46 00 47 
   299)       203.1  Rx         00D1  8  A9 06 E0 00 E0 9E FF 64 
   300)       205.8  Rx         00A1  8  73 A4 00 00 00 00 00 00 
   301)       206.1  Rx         00A3  8  3B A4 00 00 00 00 00 00 
   302)       206.6  Rx         009C  8  BC 2B 48 FF 03 14 00 00 
   303)       208.8  Rx         0085  8  02 0A 00 00 00 55 31 05 
   304)       209.0  Rx         00A9  8  42 0A 00 00 00 00 00 00 
   305)       209.3  Rx         00AE  8  B8 DB BE 03 00 00 68 00 
   306)       209.6  Rx         0110  8  3A 3A E6 05 80 78 00 80 
   307)       209.8  Rx         0113  8  4D 06 00 7D 02 00 2F 01 
   308)       212.1  Rx         00B1  8  E2 04 FF 00 00 FF 1F 1E 
   309)       212.3  Rx         027D  8  00 40 01 00 00 00 00 00 
   310)       212.9  Rx         0162  8  29 00 47 00 46 00 47 00 
   311)       215.8  Rx         00B9  8  CB 45 00 00 00 00 FF 32 
   312)       216.0  Rx         0099  8  E6 15 00 00 00 20 00 20 
   313)       218.3  Rx         010B  8  00 00 AF 0B 00 9E 3F 00 
   314)       218.6  Rx         0076  8  0E 8A A0 87 DA 3E 00 00 
   315)       218.8  Rx         00B0  8  08 5F BA 8E FE 7F E7 0F 
   316)       219.1  Rx         00D3  8  13 00 D0 07 00 C0 00 00 
   317)       219.3  Rx     18EF6303  8  10 27 01 EC 00 F0 03 08 
   318)       219.6  Rx     18EF6304  8  06 00 00 00 00 00 00 54 
   319)       219.9  Rx     18EF6305  8  04 03 00 03 00 03 00 00 
   320)       222.1  Rx         00B1  8  AF 05 FF 00 00 FF 1F 1E 
   321)       222.4  Rx         0170  8  FF FF 00 00 00 00 00 00 
   322)       222.6  Rx         0371  8  60 4A F2 09 3E 3D 3B 01 
   323)       222.9  Rx         0162  8  2A 46 00 46 00 47 00 46 
   324)       223.1  Rx         00D1  8  13 07 E0 00 E0 9E FF 64 
   325)       225.8  Rx         00A1  8  E2 A5 00 00 00 00 00 00 
   326)       226.0  Rx         00A3  8  1C A5 00 00 00 00 00 00 
   327)       226.6  Rx         009C  8  73 2C 48 FF 03 14 00 00 
   328)       227.1  Rx         0489  8  00 34 38 82 43 6F 66 00 
   329)       228.5  Rx         013B  8  A6 0D 00 00 00 E3 46 04 
   330)       228.8  Rx         0085  8  60 0B 00 00 00 55 31 05 
   331)       229.1  Rx         00A9  8  88 0B 00 00 00 00 00 00 
   332)       229.4  Rx         00AE  8  32 DC BE 03 00 00 68 00 
   333)       229.6  Rx         0110  8  9A 3B E6 05 80 78 00 80 
   334)       229.8  Rx         0113  8  44 07 00 7D 02 00 2F 01 
   335)       230.0  Rx         02BB  8  44 FF 7F FF CF 20 FF 3D 
   336)       230.3  Rx         007F  8  FF 3F FF 1F FF 3F FF 1F 
   337)       232.1  Rx         003F  8  5F 79 00 00 01 00 FC 5F 
   338)       232.3  Rx         00B1  8  9B 06 FF 00 00 FF 1F 1E 
   339)       232.6  Rx         027D  8  00 40 01 00 00 00 00 00 
   340)       232.9  Rx         0162  8  2B 00 47 00 47 00 47 00 
   341)       235.8  Rx         00B9  8  AA 46 00 00 00 00 FF 32 
   342)       236.1  Rx         0099  8  0F 16 00 00 00 20 00 20 
   343)       237.1  Rx         02B8  8  FF FF FF FF FF 1F 00 00 
   344)       238.1  Rx         0161  8  4B 48 00 00 00 00 FF 01 
   345)       238.3  Rx         0020  8  4A 02 40 0C C0 00 00 00 
   346)       238.6  Rx         010B  8  00 00 AF 0B 00 9E 3F 00 
   347)       238.8  Rx         0076  8  0E 8A A0 87 DA 3E 00 00 
   348)       239.0  Rx         00B0  8  08 5F BA 8E FE 7F E7 0F 
   349)       239.3  Rx         01E4  8  00 00 00 00 00 00 00 00 
   350)       239.4  Rx         02CE  2  3F 00 
   351)       239.7  Rx     18EF6303  8  11 01 01 06 01 01 02 00 
   352)       240.0  Rx     18EF6304  8  07 D7 05 97 16 DE 0C 00 
   353)       240.3  Rx     18EF6305  8  05 42 36 F0 0C 12 00 00 
   354)       242.1  Rx         00B1  8  35 07 FF 00 00 FF 1F 1E 
   355)       242.4  Rx         0173  8  00 00 00 00 00 00 F0 3F 
   356)       242.6  Rx         0371  8  FE 4B F2 09 3E 3D 3B 01 
   357)       242.9  Rx         0162  8  2C 47 00 47 00 47 00 47 
   358)       243.1  Rx         00D1  8  8D 08 E0 00 E0 9E FF 64 
   359)       245.8  Rx         00A1  8  6C A6 00 00 00 00 00 00 
   360)       246.0  Rx         00A3  8  95 A6 00 00 00 00 00 00 
   361)       246.6  Rx         009C  8  AC 2D 48 FF 03 14 00 00 
   362)       248.8  Rx         0085  8  9A 0C 00 00 00 55 31 05 
   363)       249.1  Rx         00A9  8  46 0C 00 00 00 00 00 00 
   364)       249.3  Rx         00AE  8  6A DD BE 03 00 00 68 00 
   365)       249.5  Rx         0110  8  44 3C E6 05 80 78 00 80 
   366)       249.8  Rx         0113  8  10 08 00 7D 02 00 2F 01 
   367)       250.0  Rx         0151  8  60 FF FA 92 00 80 24 C0 
   368)       250.3  Rx     0BA40000  8  20 00 00 00 00 00 00 00 
   369)       251.7  Rx         0138  8  00 00 44 45 FC 1F 00 00 
   370)       252.1  Rx         00B1  8  41 08 FF 00 00 FF 1F 1E 
   371)       252.4  Rx         027D  8  00 40 01 00 00 00 00 00 
   372)       252.5  Rx         03CA  2  FF FF 
   373)       252.9  Rx         0162  8  2D 00 46 00 47 00 47 AA 
   374)       255.1  Rx         02CB  8  00 00 3D 3C FF 2A 00 00 
   375)       255.8  Rx         00B9  8  0A 47 00 00 00 00 FF 32 
   376)       256.1  Rx         0099  8  0A 17 00 00 00 20 00 20 
   377)       258.3  Rx         010B  8  00 00 AF 0B 00 9E 3F 00 
   378)       258.6  Rx         0076  8  0E 8A A0 87 DA 3E 00 00 
   379)       258.8  Rx         00B0  8  08 5F BA 8E FE 7F E7 0F 
   380)       259.1  Rx     18EF6303  8  00 DA 00 D9 00 1A 01 7A 
   381)       259.3  Rx     18EF6304  8  00 00 00 04 00 00 00 64 
   382)       259.6  Rx     18EF6305  8  00 48 48 48 00 00 49 00 
   383)       260.0  Rx     04880001  8  0A 5F 00 00 00 00 00 00 
   384)       262.1  Rx         00B1  8  0C 09 FF 00 00 FF 1F 1E 
   385)       262.3  Rx         0371  8  E8 4C F2 09 3E 3D 3B 01 
   386)       263.0  Rx         00D1  8  84 09 E0 FF DF 9E FF 64 
   387)       265.7  Rx         00A1  8  A1 A7 00 00 00 00 00 00 
   388)       266.0  Rx         00A3  8  4A A7 00 00 00 00 00 00 
   389)       266.6  Rx         009C  8  AA 2E 48 FF 03 14 00 00 
   390)       267.0  Rx         02D3  8  7A FF 47 0B 7E 00 80 DF 
   391)       267.3  Rx         0068  1  02 
   392)       268.8  Rx         0085  8  3D 0D 00 00 00 55 31 05 
   393)       269.0  Rx         00A9  8  8C 0D 00 00 00 00 00 00 
   394)       269.2  Rx         00AE  8  17 DE BE 03 00 00 68 00 
   395)       269.5  Rx         0110  8  4A 3D E6 05 80 78 00 80 
   396)       269.7  Rx         0113  8  4B 09 00 7D 02 00 2F 01 
   397)       272.0  Rx         00B1  8  38 0A FF 00 00 FF 1F 1E 
   398)       272.3  Rx         027D  8  00 40 01 00 00 00 00 00 
   399)       272.6  Rx         02CA  8  FF FF FF 03 00 00 00 00 
   400)       275.1  Rx         0493  8  23 00 21 00 DD 05 91 7E 
   401)       275.8  Rx         00B9  8  39 48 00 00 00 00 FF 32 
   402)       276.0  Rx         0099  8  D5 18 00 00 00 20 00 20 
   403)       278.3  Rx         010B  8  00 00 AF 0B 00 9E 3F 00 
   404)       278.5  Rx         0076  8  0F 6A A0 87 DA 3E 00 00 
   405)       278.8  Rx         00B0  8  08 5F BA 8E FE 7F E7 0F 
   406)       279.0  Rx         013C  8  FF FF 00 01 EF 1E 02 01 
   407)       279.3  Rx     18EF6303  8  01 EA 00 00 00 D7 00 03 
   408)       279.6  Rx     18EF6304  8  01 00 00 00 00 00 00 37 
   409)       279.9  Rx     18EF6305  8  01 00 00 00 00 00 00 1F 
   410)       282.1  Rx         00B1  8  05 0B FF 00 00 FF 1F 1E 
   411)       282.3  Rx         0371  8  6A 4D F2 09 3E 3D 3B 01 
   412)       283.1  Rx         00D1  8  12 0A E0 FF DF 9E FF 64 
   413)       285.0  Rx         01BD  8  FF FF FF 1F FF FF FF 1F 
   414)       285.7  Rx         00A1  8  38 A8 00 00 00 00 00 00 
   415)       286.0  Rx         00A3  8  38 A8 00 00 00 00 00 00 
   416)       286.5  Rx         009C  8  F9 2F 48 FF 03 14 00 00 
   417)       288.8  Rx         0085  8  26 0E 00 00 00 55 31 05 
   418)       289.0  Rx         00A9  8  F8 0E 00 00 00 00 00 00 
   419)       289.2  Rx         00AE  8  11 DF BE 03 00 00 68 00 
   420)       289.5  Rx         0110  8  97 3E E6 05 80 78 00 80 
   421)       289.7  Rx         0113  8  81 0A 00 7D 02 00 2F 01 
   422)       290.0  Rx     0BD80000  8  08 00 00 C0 00 80 3F 3E 
   423)       292.1  Rx         00B1  8  D9 0C FF 00 00 FF 1F 1E 
   424)       292.3  Rx         027D  8  00 40 01 00 00 00 00 00 
   425)       295.8  Rx         00B9  8  CE 49 00 00 00 00 FF 32 
   426)       296.0  Rx         0099  8  A3 19 00 00 00 20 00 20 
   427)       296.6  Rx         0134  8  02 84 30 55 F4 21 00 00 
   428)       298.0  Rx         0233  8  02 FF 00 00 00 00 00 00 
   429)       298.3  Rx         010B  8  00 00 AF 0B 00 9E 3F 00 
   430)       298.5  Rx         0076  8  0F 6A A0 87 DA 3E 00 00 
   431)       298.8  Rx         03F2  8  FF 01 00 00 00 00 7A FF 
   432)       299.0  Rx         00B0  8  08 5F BA 8E FE 7F E7 0F 
   433)       299.3  Rx     18EF6303  8  02 F0 00 E4 00 E2 00 00 
   434)       299.6  Rx     18EF6304  8  02 00 00 49 49 49 E4 0C 
   435)       299.9  Rx     18EF6305  8  02 00 00 04 00 01 E8 4E 
   436)       301.6  Rx         0136  8  00 07 00 04 1C 00 00 00 
   437)       302.1  Rx         00B1  8  F8 0D FF 00 00 FF 1F 1E 
   438)       302.3  Rx         0371  8  0E 4E F2 09 3E 3D 3B 01 
   439)       303.1  Rx         00D1  8  8A FB DF FF DF 9E FF 64 
   440)       305.7  Rx         00A1  8  3C A9 00 00 00 00 00 00 
   441)       306.0  Rx         00A3  8  79 A9 00 00 00 00 00 00 
   442)       306.6  Rx         009C  8  E3 20 48 FF 03 14 00 00 
   443)       308.8  Rx         0085  8  1A 0F 00 00 00 55 31 05 
   444)       309.0  Rx         00A9  8  32 0F 00 00 00 00 00 00 
   445)       309.2  Rx         00AE  8  03 D0 BE 03 00 00 68 00 
   446)       309.5  Rx         0110  8  60 3F E6 05 80 78 00 80 
   447)       309.7  Rx         0113  8  3C 0B 00 7D 02 00 2F 01 
   448)       312.1  Rx         00B1  8  7D 0E FF 00 00 FF 1F 1E 
   449)       312.3  Rx         027D  8  00 40 01 00 00 00 00 00 
   450)       312.6  Rx     0BD40000  8  04 00 00 C0 FF 01 00 80 
   451)       315.7  Rx         00B9  8  56 4A 00 00 00 00 FF 32 
   452)       316.0  Rx         0099  8  39 1A 00 00 00 20 00 20 
   453)       318.3  Rx         010B  8  00 00 AF 0B 00 9E 3F 00 
   454)       318.5  Rx         0076  8  0F 6A A0 87 DA 3E 00 00 
   455)       318.8  Rx         00B0  8  08 5F BA 8E FE 7F E7 0F 
   456)       319.0  Rx         00D3  8  13 00 D0 07 00 C0 00 00 
   457)       319.3  Rx     18EF6303  8  03 00 00 40 1F 01 02 58 
   458)       319.6  Rx     18EF6304  8  03 00 00 00 00 00 00 00 
   459)       319.9  Rx     18EF6305  8  03 00 00 00 00 00 00 0C 
   460)       322.0  Rx         00B1  8  81 0F FF 00 00 FF 1F 1E 
   461)       322.3  Rx         0170  8  FF FF 00 00 00 00 00 00 
   462)       322.6  Rx         0371  8  8C 4F F2 09 3E 3D 3B 01 
   463)       323.1  Rx         00D1  8  36 0C E0 00 E0 9E FF 64 
   464)       325.7  Rx         00A1  8  4A AA 00 00 00 00 00 00 
   465)       326.0  Rx         00A3  8  6E AA 00 00 00 00 00 00 
   466)       326.6  Rx         009C  8  8D 21 48 FF 03 14 00 00 
   467)       328.4  Rx         013B  8  5B 0E 00 00 00 E3 46 04 
   468)       328.8  Rx         0085  8  90 00 00 00 00 55 31 05 
   469)       329.0  Rx         00A9  8  EA 00 00 00 00 00 00 00 
   470)       329.3  Rx         00AE  8  90 D1 BE 03 00 00 68 00 
   471)       329.5  Rx         0110  8  A4 30 E6 05 80 78 00 80 
   472)       329.7  Rx         0113  8  DA 0C 00 7D 02 00 2F 01 
   473)       330.0  Rx         02BB  8  44 FF 7F FF CF 20 FF 3D 
   474)       330.2  Rx         007F  8  FF 3F FF 1F FF 3F FF 1F 
   475)       330.5  Rx         0448  8  87 06 00 3B 38 3D 3E 3B 
   476)       332.0  Rx         00B1  8  A3 00 FF 00 00 FF 1F 1E 
   477)       332.3  Rx         027D  8  00 40 01 00 00 00 00 00 
   478)       335.7  Rx         00B9  8  A1 4B 00 00 00 00 FF 32 
   479)       336.0  Rx         0099  8  4F 1B 00 00 00 20 00 20 
   480)       337.0  Rx         026A  8  6F 01 DC E2 FE FE FF FF 
   481)       337.3  Rx         02B8  8  FF FF FF FF FF 1F 00 00 
   482)       338.3  Rx         0020  8  9E 03 40 0C C0 00 00 00 
   483)       338.5  Rx         010B  8  00 00 AF 0B 00 9E 3F 00 
   484)       338.7  Rx         0076  8  0F 6A A0 87 DA 3E 00 00 
   485)       338.9  Rx         00B0  8  08 5F BA 8E FE 7F E7 0F 
   486)       339.2  Rx         01E4  8  00 00 00 00 00 00 00 00 
   487)       339.5  Rx     18EF6303  8  04 13 11 00 13 1D 20 00 
   488)       339.8  Rx     18EF6304  8  04 00 00 00 00 00 00 00 
   489)       340.1  Rx     18EF6305  8  04 03 00 03 00 03 00 00 
   490)       342.1  Rx         00B1  8  08 01 FF 00 00 FF 1F 1E 
   491)       342.3  Rx         0173  8  00 00 00 00 00 00 F0 3F 
   492)       342.5  Rx         0371  8  AF 40 F2 09 3E 3D 3B 01 
   493)       343.0  Rx         00D1  8  6E 0D E0 00 E0 9E FF 64 
   494)       343.3  Rx         046B  8  00 00 3C 50 50 B8 4C 10 
   495)       345.7  Rx         00A1  8  D1 AB 00 00 00 00 00 00 
   496)       346.0  Rx         00A3  8  81 AB 00 00 00 00 00 00 
   497)       346.5  Rx         009C  8  DC 22 48 FF 03 14 00 00 
   498)       348.8  Rx         0085  8  4A 01 00 00 00 55 31 05 
   499)       349.0  Rx         00A9  8  53 01 00 00 00 00 00 00 
   500)       349.2  Rx         00AE  8  78 D2 BE 03 00 00 68 00 
   501)       349.5  Rx         0110  8  B1 31 E6 05 80 78 00 80 
   502)       349.7  Rx         0113  8  78 0D 00 7D 02 00 2F 01 
   503)       350.0  Rx         0151  8  60 FF FA 92 00 80 FB C1 
   504)       350.2  Rx         0199  8  BA A3 C8 FF F1 7F 00 80 
   505)       350.5  Rx     0BA40000  8  20 00 00 00 00 00 00 00 
   506)       350.7  Rx         045A  8  97 03 E4 E8 02 46 15 CB 
   507)       351.6  Rx         0138  8  00 00 44 45 FC 1F 00 00 
   508)       352.0  Rx         00B1  8  1F 02 FF 00 00 FF 1F 1E 
   509)       352.3  Rx         027D  8  00 40 01 00 00 00 00 00 
   510)       355.1  Rx         02CB  8  00 00 3D 3C FF 2A 00 00 
   511)       355.8  Rx         00B9  8  C3 4C 00 00 00 00 FF 32 
   512)       356.0  Rx         0099  8  22 1C 00 00 00 20 00 20 
   513)       358.3  Rx         010B  8  00 00 AF 0B 00 9E 3F 00 
   514)       358.6  Rx         0076  8  0E 8A A0 87 DA 3E 00 00 
   515)       358.8  Rx         0041  8  FC 9F 00 00 30 07 80 FF 
   516)       359.0  Rx         00B0  8  08 5F BA 8E FE 7F E7 0F 
   517)       359.3  Rx     18EF6303  8  05 00 00 00 00 00 00 01 
   518)       359.6  Rx     18EF6304  8  05 00 00 00 00 00 00 00 
   519)       359.9  Rx     18EF6305  8  05 38 36 F0 0C 12 00 00 
   520)       360.2  Rx     04880001  8  0A 5F 00 00 00 00 00 00 
   521)       362.1  Rx         00B1  8  B4 03 FF 00 00 FF 1F 1E 
   522)       362.3  Rx         0371  8  CE 41 F2 09 3E 3D 3B 01 
   523)       362.5  Rx         03CC  8  00 00 00 00 00 00 00 3D 
   524)       363.0  Rx         00D1  8  1F FE DF 00 E0 9E FF 64 
   525)       365.7  Rx         00A1  8  37 AC 00 00 00 00 00 00 
   526)       366.0  Rx         00A3  8  7F AC 00 00 00 00 00 00 
   527)       366.5  Rx         009C  8  C7 23 48 FF 03 14 00 00 
   528)       367.0  Rx         02D3  8  7A FF 47 0B 7E 00 40 CF 
   529)       368.8  Rx         0085  8  8C 02 00 00 00 55 31 05 
   530)       369.0  Rx         00A9  8  51 02 00 00 00 00 00 00 
   531)       369.2  Rx         00AE  8  53 D3 BE 03 00 00 68 00 
   532)       369.5  Rx         0110  8  D9 32 E6 05 80 78 00 80 
   533)       369.7  Rx         0113  8  B1 0E 00 7D 02 00 2F 01 
   534)       370.0  Rx         02FA  8  FF 00 78 00 80 E0 00 1C 
   535)       372.1  Rx         00B1  8  E2 04 FF 00 00 FF 1F 1E 
   536)       372.3  Rx         027D  8  00 40 01 00 00 00 00 00 
   537)       372.5  Rx         02CA  8  FF FF FF 03 00 00 00 00 
   538)       375.1  Rx         0493  8  23 00 21 00 DD 05 91 7E 
   539)       375.8  Rx         00B9  8  63 4D 00 00 00 00 FF 32 
   540)       376.0  Rx         0099  8  27 1D 00 00 00 20 00 20 
   541)       378.3  Rx         010B  8  00 00 AF 0B 00 9E 3F 00 
   542)       378.5  Rx         0076  8  0E 8A A0 87 DA 3E 00 00 
   543)       378.8  Rx         00B0  8  08 5F BA 8E FE 7F E7 0F 
   544)       379.0  Rx         013C  8  FF FF 00 01 DE 1F 02 01 
   545)       379.3  Rx     18EF6303  8  06 BC 02 BC 02 00 00 00 
   546)       379.6  Rx     18EF6304  8  06 00 00 00 00 00 00 54 
   547)       379.9  Rx     18EF6305  8  00 48 48 48 00 00 49 00 
   548)       382.1  Rx         00B1  8  AF 05 FF 00 00 FF 1F 1E 
   549)       382.3  Rx         0371  8  84 42 F2 09 3E 3D 3B 01 
   550)       383.1  Rx         00D1  8  4A 0F E0 00 E0 9E FF 64 
   551)       384.9  Rx         01BD  8  FF FF FF 1F FF FF FF 1F 
   552)       385.7  Rx         00A1  8  1C AD 00 00 00 00 00 00 
   553)       386.0  Rx         00A3  8  46 AD 00 00 00 00 00 00 
   554)       386.6  Rx         009C  8  2E 24 48 FF 03 14 00 00 
   555)       388.8  Rx         0085  8  0C 03 00 00 00 55 31 05 
   556)       389.0  Rx         00A9  8  0E 03 00 00 00 00 00 00 
   557)       389.2  Rx         00AE  8  DC D4 BE 03 00 00 68 00 
   558)       389.5  Rx         0110  8  70 33 E6 05 80 78 00 80 
   559)       389.7  Rx         0113  8  14 0F 00 7D 02 00 2F 01 
   560)       392.1  Rx         00B1  8  9B 06 FF 00 00 FF 1F 1E 
   561)       392.3  Rx         027D  8  00 40 01 00 00 00 00 00 
   562)       395.0  Rx         02CC  8  85 37 0E 00 00 6E 49 00 
   563)       395.7  Rx         00B9  8  02 4E 00 00 00 00 FF 32 
   564)       396.0  Rx         0099  8  CE 1E 00 00 00 20 00 20 
   565)       396.6  Rx         0134  8  02 84 30 55 F4 21 00 00 
   566)       398.0  Rx         0233  8  02 FF 00 00 00 00 00 00 
   567)       398.3  Rx         010B  8  00 00 AF 0B 00 9E 3F 00 
   568)       398.5  Rx         0076  8  0E 8A A0 87 DA 3E 00 00 
   569)       398.8  Rx         00B0  8  08 5F BA 8E FE 7F E7 0F 
   570)       399.1  Rx     18EF6303  8  07 00 00 00 AC 0D 80 0C 
   571)       399.3  Rx     18EF6304  8  07 D7 05 97 16 DB 0C 00 
   572)       399.6  Rx     18EF6305  8  01 00 00 00 00 00 00 2B 
   573)       401.6  Rx         0136  8  00 07 00 04 1C 00 00 00 
   574)       402.0  Rx         00B1  8  35 07 FF 00 00 FF 1F 1E 
   575)       402.3  Rx     0BE00000  8  34 07 FE 3F 08 00 00 00 
   576)       402.6  Rx         0371  8  76 43 F2 09 3E 3D 3B 01 
   577)       403.1  Rx         00D1  8  09 00 E0 00 E0 9E FF 64 
   578)       405.7  Rx         00A1  8  6B AE 00 00 00 00 00 00 
   579)       406.0  Rx         00A3  8  F4 AE 00 00 00 00 00 00 
   580)       406.6  Rx         009C  8  6A 25 48 FF 03 14 00 00 
   581)       408.7  Rx         0085  8  FF 04 00 00 00 55 31 05 
   582)       409.0  Rx         00A9  8  B3 04 00 00 00 00 00 00 
   583)       409.3  Rx         00AE  8  40 D5 BE 03 00 00 68 00 
   584)       409.5  Rx         0110  8  09 34 E6 05 80 78 00 80 
   585)       409.7  Rx         0113  8  84 00 00 7D 02 00 2F 01 
   586)       412.0  Rx         00B1  8  41 08 FF 00 00 FF 1F 1E 
   587)       412.3  Rx         027D  8  00 40 01 00 00 00 00 00 
   588)       415.7  Rx         00B9  8  7F 4F 00 00 00 00 FF 32 
   589)       416.0  Rx         0099  8  A4 1F 00 00 00 20 00 20 
   590)       418.3  Rx         010B  8  00 00 AF 0B 00 9E 3F 00 
   591)       418.5  Rx         0076  8  0E 8A A0 87 DA 3E 00 00 
   592)       418.8  Rx         00B0  8  08 5F BA 8E FE 7F E7 0F 
   593)       419.0  Rx         00D3  8  13 00 D0 07 00 C0 00 00 
   594)       419.3  Rx     18EF6303  8  08 00 00 00 00 64 64 64 
   595)       419.6  Rx     18EF6304  8  00 00 00 04 00 00 00 64 
   596)       419.9  Rx     18EF6305  8  02 00 00 04 00 01 E8 4E 
   597)       422.1  Rx         00B1  8  0C 09 FF 00 00 FF 1F 1E 
   598)       422.3  Rx         0170  8  FF FF 00 00 00 00 00 00 
   599)       422.6  Rx         0371  8  83 44 F2 09 3E 3D 3B 01 
   600)       423.1  Rx         00D1  8  C2 F1 DF FF DF 9E FF 64 
   601)       425.7  Rx         00A1  8  89 AF 00 00 00 00 00 00 
   602)       426.0  Rx         00A3  8  7D AF 00 00 00 00 00 00 
   603)       426.5  Rx         009C  8  64 26 48 FF 03 14 00 00 
   604)       427.0  Rx         0489  8  00 34 38 82 43 6F 66 00 
   605)       428.4  Rx         013B  8  C3 0F 00 00 00 E3 46 04 
   606)       428.8  Rx         0085  8  B3 05 00 00 00 55 31 05 
   607)       429.0  Rx         00A9  8  0A 05 00 00 00 00 00 00 
   608)       429.3  Rx         00AE  8  FD D6 BE 03 00 00 68 00 
   609)       429.5  Rx         0110  8  1C 35 E6 05 80 78 00 80 
   610)       429.7  Rx         0113  8  63 01 00 7D 02 00 2F 01 
   611)       430.0  Rx         02BB  8  44 FF 7F FF CF 20 FF 3D 
   612)       430.2  Rx         007F  8  FF 3F FF 1F FF 3F FF 1F 
   613)       432.0  Rx         00B1  8  38 0A FF 00 00 FF 1F 1E 
   614)       432.3  Rx         027D  8  00 40 01 00 00 00 00 00 
   615)       432.6  Rx     0BE40000  8  E4 07 FE 3F 00 00 00 00 
   616)       435.8  Rx         00B9  8  8D 40 00 00 00 00 FF 32 
   617)       436.0  Rx         0099  8  EA 10 00 00 00 20 00 20 
   618)       437.1  Rx         02B8  8  FF FF FF FF FF 1F 00 00 
   619)       438.0  Rx         0161  8  4B 48 00 00 00 00 FF 01 
   620)       438.2  Rx         0020  8  9A 04 40 0C C0 00 00 00 
   621)       438.5  Rx         010B  8  00 00 AF 0B 00 9E 3F 00 
   622)       438.7  Rx         0076  8  0E 8A A0 87 DA 3E 00 00 
   623)       439.0  Rx         00B0  8  08 5F BA 8E FE 7F E7 0F 
   624)       439.2  Rx         01E4  8  00 00 00 00 00 00 00 00 
   625)       439.5  Rx     18EF6303  8  09 E3 29 01 88 13 00 00 
   626)       439.8  Rx     18EF6304  8  01 00 00 00 00 00 00 39 
   627)       440.1  Rx     18EF6305  8  03 00 00 00 00 00 00 0C 
   628)       442.1  Rx         00B1  8  05 0B FF 00 00 FF 1F 1E 
   629)       442.3  Rx         0173  8  00 00 00 00 00 00 F0 3F 
   630)       442.5  Rx         0371  8  E2 45 F2 09 3E 3D 3B 01 
   631)       443.0  Rx         00D1  8  BF F2 DF 00 E0 9E FF 64 
   632)       445.1  Rx         02D2  8  FF 0F 40 00 00 00 00 00 
   633)       445.7  Rx         00A1  8  E7 A0 00 00 00 00 00 00 
   634)       445.9  Rx         00A3  8  77 A0 00 00 00 00 00 00 
   635)       446.5  Rx         009C  8  B6 27 48 FF 03 14 00 00 
   636)       448.8  Rx         0085  8  1D 06 00 00 00 55 31 05 
   637)       449.0  Rx         00A9  8  4A 06 00 00 00 00 00 00 
   638)       449.2  Rx         00AE  8  E6 D7 BE 03 00 00 68 00 
   639)       449.5  Rx         0110  8  23 36 E6 05 80 78 00 80 
   640)       449.7  Rx         0113  8  86 02 00 7D 02 00 2F 01 
   641)       450.0  Rx         0151  8  60 FF FA 92 00 80 C6 C2 
   642)       450.3  Rx     0BA40000  8  20 00 00 00 00 00 00 00 
   643)       451.6  Rx         0138  8  00 00 44 45 FC 1F 00 00 
   644)       452.1  Rx         00B1  8  D9 0C FF 00 00 FF 1F 1E 
   645)       452.3  Rx         027D  8  00 40 01 00 00 00 00 00 
   646)       455.0  Rx         02CB  8  00 00 3D 3C FF 2A 00 00 
   647)       455.8  Rx         00B9  8  DD 41 00 00 00 00 FF 32 
   648)       456.0  Rx         0099  8  EF 11 00 00 00 20 00 20 
   649)       458.3  Rx         010B  8  00 00 AF 0B 00 9E 3F 00 
   650)       458.5  Rx         0076  8  0E 7A A0 87 DA 3E 00 00 
   651)       458.7  Rx         00B0  8  08 5F BA 8E FE 7F E7 0F 
   652)       459.0  Rx     18EF6303  8  0A 80 0C 00 00 00 00 20 
   653)       459.3  Rx     18EF6304  8  02 00 00 49 49 49 E4 0C 
   654)       459.6  Rx     18EF6305  8  04 03 00 03 00 03 00 00 
   655)       460.0  Rx     04880001  8  0A 5F 00 00 00 00 00 00 
   656)       462.1  Rx         00B1  8  F8 0D FF 00 00 FF 1F 1E 
   657)       462.3  Rx         0371  8  A8 46 F2 09 3E 3D 3B 01 
   658)       463.1  Rx         00D1  8  7F 03 E0 00 E0 9E FF 64 
   659)       465.7  Rx         00A1  8  BA A1 00 00 00 00 00 00 
   660)       466.0  Rx         00A3  8  4E A1 00 00 00 00 00 00 
   661)       466.6  Rx         009C  8  C6 28 48 FF 03 14 00 00 
   662)       467.0  Rx         02D3  8  7A FF 47 0B 7E 00 80 DF 
   663)       467.2  Rx         0068  1  02 
   664)       468.7  Rx         0085  8  28 07 00 00 00 55 31 05 
   665)       469.0  Rx         00A9  8  80 07 00 00 00 00 00 00 
   666)       469.2  Rx         00AE  8  98 D8 BE 03 00 00 68 00 
   667)       469.5  Rx         0110  8  DD 37 E6 05 80 78 00 80 
   668)       469.7  Rx         0113  8  87 03 00 7D 02 00 2F 01 
   669)       470.0  Rx         043C  8  00 00 03 00 00 00 00 00 
   670)       472.1  Rx         00B1  8  7D 0E FF 00 00 FF 1F 1E 
   671)       472.3  Rx         027D  8  00 40 01 00 00 00 00 00 
   672)       472.5  Rx         02CA  8  FF FF FF 03 00 00 00 00 
   673)       475.1  Rx         0493  8  23 00 21 00 DD 05 91 7E 
   674)       475.7  Rx         00B9  8  E2 42 00 00 00 00 FF 32 
   675)       476.0  Rx         0099  8  F8 12 00 00 00 20 00 20 
   676)       478.3  Rx         010B  8  00 00 AF 0B 00 9E 3F 00 
   677)       478.6  Rx         0076  8  0E 7A A0 87 DA 3E 00 00 
   678)       478.8  Rx         00B0  8  08 5F BA 8E FE 7F E7 0F 
   679)       479.1  Rx         013C  8  FF FF 00 01 8E 10 02 01 
   680)       479.4  Rx     18EF6303  8  0B 00 00 00 00 00 00 06 
   681)       479.7  Rx     18EF6304  8  03 00 00 00 00 00 00 00 
   682)       479.9  Rx     18EF6305  8  05 42 36 F0 0C 12 00 00 
   683)       482.0  Rx         00B1  8  81 0F FF 00 00 FF 1F 1E 
   684)       482.3  Rx         0371  8  EF 47 F2 09 3E 3D 3B 01 
   685)       483.1  Rx         00D1  8  D5 04 E0 FF DF 9E FF 64 
   686)       484.9  Rx         01BD  8  FF FF FF 1F FF FF FF 1F 
   687)       485.7  Rx         00A1  8  90 A2 00 00 00 00 00 00 
   688)       486.0  Rx         00A3  8  D2 A2 00 00 00 00 00 00 
   689)       486.6  Rx         009C  8  EB 29 48 FF 03 14 00 00 
   690)       488.7  Rx         0085  8  D4 08 00 00 00 55 31 05 
   691)       489.0  Rx         00A9  8  1F 08 00 00 00 00 00 00 
   692)       489.3  Rx         00AE  8  CB D9 BE 03 00 00 68 00 
   693)       489.5  Rx         0110  8  0C 38 E6 05 80 78 00 80 
   694)       489.7  Rx         0113  8  AC 04 00 7D 02 00 2F 01 
   695)       492.0  Rx         00B1  8  A3 00 FF 00 00 FF 1F 1E 
   696)       492.3  Rx         027D  8  00 40 01 00 00 00 00 00 
   697)       495.7  Rx         00B9  8  F7 43 00 00 00 00 FF 32 
   698)       496.0  Rx         0099  8  8E 13 00 00 00 20 00 20 
   699)       496.6  Rx         0134  8  02 84 30 55 F4 21 00 00 
   700)       498.0  Rx         0233  8  02 FF 00 00 00 00 00 00 
   701)       498.3  Rx         010B  8  00 00 AF 0B 00 9E 3F 00 
   702)       498.5  Rx         0076  8  0E 7A A0 87 DA 3E 00 00 
   703)       498.8  Rx         03F2  8  FF 01 00 00 00 00 7A FF 
   704)       499.0  Rx         00B0  8  08 5F BA 8E FE 7F E7 0F 
   705)       499.3  Rx     18EF6303  8  0C BD 2F D7 00 D6 00 06 
   706)       499.6  Rx     18EF6304  8  04 00 00 00 00 00 00 00 
   707)       499.9  Rx     18EF6305  8  00 48 48 48 00 00 49 00 
   708)       501.5  Rx         0136  8  00 07 00 04 1C 00 00 00 
   709)       502.1  Rx         00B1  8  08 01 FF 00 00 FF 1F 1E 
   710)       502.3  Rx         0371  8  4B 48 F2 09 3E 3D 3B 01 
   711)       503.0  Rx         00D1  8  0A 05 E0 00 E0 9E FF 64 
   712)       505.7  Rx         00A1  8  2F A3 00 00 00 00 00 00 
   713)       506.0  Rx         00A3  8  75 A3 00 00 00 00 00 00 
   714)       506.5  Rx         009C  8  44 2A 48 FF 03 14 00 00 
   715)       508.8  Rx         0085  8  AC 09 00 00 00 55 31 05 
   716)       509.0  Rx         00A9  8  D5 09 00 00 00 00 00 00 
   717)       509.2  Rx         00AE  8  05 DA BE 03 00 00 68 00 
   718)       509.5  Rx         0110  8  E7 39 E6 05 80 78 00 80 
   719)       509.7  Rx         0113  8  F7 05 00 7D 02 00 2F 01 
   720)       512.0  Rx         00B1  8  1F 02 FF 00 00 FF 1F 1E 
   721)       512.3  Rx         027D  8  00 40 01 00 00 00 00 00 
   722)       515.8  Rx         00B9  8  20 44 00 00 00 00 FF 32 
   723)       516.0  Rx         0099  8  05 14 00 00 00 20 00 20 
   724)       518.3  Rx         010B  8  00 00 AF 0B 00 9E 3F 00 
   725)       518.5  Rx         0076  8  0E 7A A0 87 DA 3E 00 00 
   726)       518.8  Rx         00B0  8  08 5F BA 8E FE 7F E7 0F 
   727)       519.0  Rx         00D3  8  13 00 D0 07 00 C0 00 00 
   728)       519.3  Rx     18EF6303  8  0D 00 00 40 1F AC 0D 00 
   729)       519.6  Rx     18EF6304  8  05 00 00 00 00 00 00 00 
   730)       519.9  Rx     18EF6305  8  01 00 00 00 00 00 00 05 
   731)       522.1  Rx         00B1  8  B4 03 FF 00 00 FF 1F 1E 
   732)       522.3  Rx         0170  8  FF FF 00 00 00 00 00 00 
   733)       522.5  Rx         0371  8  2A 49 F2 09 3E 3D 3B 01 
   734)       523.0  Rx         00D1  8  A9 06 E0 00 E0 9E FF 64 
   735)       525.7  Rx         00A1  8  73 A4 00 00 00 00 00 00 
   736)       526.0  Rx         00A3  8  3B A4 00 00 00 00 00 00 
   737)       526.5  Rx         009C  8  BC 2B 48 FF 03 14 00 00 
   738)       528.4  Rx         013B  8  4B 00 00 00 00 E3 46 04 
   739)       528.8  Rx         0085  8  02 0A 00 00 00 55 31 05 
   740)       529.0  Rx         00A9  8  42 0A 00 00 00 00 00 00 
   741)       529.3  Rx         00AE  8  B8 DB BE 03 00 00 68 00 
   742)       529.5  Rx         0110  8  3A 3A E6 05 80 78 00 80 
   743)       529.7  Rx         0113  8  4D 06 00 7D 02 00 2F 01 
   744)       530.0  Rx         02BB  8  44 FF 7F FF CF 20 FF 3D 
   745)       530.2  Rx         007F  8  FF 3F FF 1F FF 3F FF 1F 
   746)       532.0  Rx         00B1  8  E2 04 FF 00 00 FF 1F 1E 
   747)       532.3  Rx         027D  8  00 40 01 00 00 00 00 00 
   748)       533.2  Rx         046B  8  00 00 3C 50 50 B8 4C 10 
   749)       535.8  Rx         00B9  8  CB 45 00 00 00 00 FF 32 
   750)       536.0  Rx         0099  8  E6 15 00 00 00 20 00 20 
   751)       537.0  Rx         026A  8  6F 01 DC E2 FE FE FF FF 
   752)       537.3  Rx         02B8  8  FF FF FF FF FF 1F 00 00 
   753)       538.2  Rx         0020  8  38 05 40 0C C0 00 00 00 
   754)       538.5  Rx         010B  8  00 00 AF 0B 00 9E 3F 00 
   755)       538.7  Rx         0076  8  0E 8A A0 87 DA 3E 00 00 
   756)       539.0  Rx         00B0  8  08 5F BA 8E FE 7F E7 0F 
   757)       539.2  Rx         01E4  8  00 00 00 00 00 00 00 00 
   758)       539.5  Rx     18EF6303  8  0E 54 0D AC 0D 40 1F 00 
   759)       539.8  Rx     18EF6304  8  06 00 00 00 00 00 00 54 
   760)       540.1  Rx     18EF6305  8  02 00 00 04 00 01 E8 4E 
   761)       542.1  Rx         00B1  8  AF 05 FF 00 00 FF 1F 1E 
   762)       542.3  Rx         0173  8  00 00 00 00 00 00 F0 3F 
   763)       542.5  Rx         0371  8  60 4A F2 09 3E 3D 3B 01 
   764)       543.1  Rx         00D1  8  FE 07 E0 FF DF 9E FF 64 
   765)       545.7  Rx         00A1  8  E2 A5 00 00 00 00 00 00 
   766)       546.0  Rx         00A3  8  1C A5 00 00 00 00 00 00 
   767)       546.6  Rx         009C  8  73 2C 48 FF 03 14 00 00 
   768)       548.7  Rx         0085  8  60 0B 00 00 00 55 31 05 
   769)       549.0  Rx         00A9  8  88 0B 00 00 00 00 00 00 
   770)       549.2  Rx         00AE  8  32 DC BE 03 00 00 68 00 
   771)       549.5  Rx         0110  8  9A 3B E6 05 80 78 00 80 
   772)       549.7  Rx         0113  8  44 07 00 7D 02 00 2F 01 
   773)       549.9  Rx         0151  8  60 FF FA 92 00 80 B7 C3 
   774)       550.2  Rx     0BA40000  8  20 00 00 00 00 00 00 00 
   775)       550.5  Rx         045A  8  97 E3 E5 E8 02 46 15 CB 
   776)       551.6  Rx         0138  8  00 00 44 45 FC 1F 00 00 
   777)       552.0  Rx         00B1  8  9B 06 FF 00 00 FF 1F 1E 
   778)       552.3  Rx         027D  8  00 40 01 00 00 00 00 00 
   779)       555.0  Rx         02CB  8  00 00 3D 3C FF 2A 00 00 
   780)       555.7  Rx         00B9  8  AA 46 00 00 00 00 FF 32 
   781)       556.0  Rx         0099  8  0F 16 00 00 00 20 00 20 
   782)       558.3  Rx         010B  8  00 00 AF 0B 00 9E 3F 00 
   783)       558.5  Rx         0076  8  0F 7A A0 87 DA 3E 00 00 
   784)       558.8  Rx         00B0  8  08 5F BA 8E FE 7F E7 0F 
   785)       559.1  Rx     18EF6303  8  0F 00 1C 0D 65 0B 01 70 
   786)       559.4  Rx     18EF6304  8  07 D8 05 99 16 DC 0C 00 
   787)       559.7  Rx     18EF6305  8  03 00 00 00 00 00 00 0C 
   788)       560.0  Rx     04880001  8  0A 5F 00 00 00 00 00 00 
   789)       562.1  Rx         00B1  8  35 07 FF 00 00 FF 1F 1E 
   790)       562.3  Rx         0371  8  FE 4B F2 09 3E 3D 3B 01 
   791)       562.6  Rx         03CC  8  00 00 00 00 00 00 00 3D 
   792)       563.1  Rx         00D1  8  60 08 E0 FF DF 9E FF 64 
   793)       565.7  Rx         00A1  8  6C A6 00 00 00 00 00 00 
   794)       566.0  Rx         00A3  8  95 A6 00 00 00 00 00 00 
   795)       566.6  Rx         009C  8  AC 2D 48 FF 03 14 00 00 
   796)       567.0  Rx         02D3  8  7A FF 47 0B 7E 00 40 CF 
   797)       568.7  Rx         0085  8  9A 0C 00 00 00 55 31 05 
   798)       569.0  Rx         00A9  8  46 0C 00 00 00 00 00 00 
   799)       569.3  Rx         00AE  8  6A DD BE 03 00 00 68 00 
   800)       569.5  Rx         0110  8  44 3C E6 05 80 78 00 80 
   801)       569.7  Rx         0113  8  10 08 00 7D 02 00 2F 01 
   802)       570.0  Rx         02FA  8  FF 00 78 00 80 E0 00 1C 
   803)       572.0  Rx         00B1  8  41 08 FF 00 00 FF 1F 1E 
   804)       572.3  Rx         027D  8  00 40 01 00 00 00 00 00 
   805)       572.5  Rx         02CA  8  FF FF FF 03 00 00 00 00 
   806)       575.1  Rx         0493  8  23 00 21 00 DD 05 91 7E 
   807)       575.7  Rx         00B9  8  0A 47 00 00 00 00 FF 32 
   808)       576.0  Rx         0099  8  0A 17 00 00 00 20 00 20 
   809)       578.3  Rx         010B  8  00 00 AF 0B 00 9E 3F 00 
   810)       578.6  Rx         0076  8  0F 7A A0 87 DA 3E 00 00 
   811)       578.8  Rx         00B0  8  08 5F BA 8E FE 7F E7 0F 
   812)       579.0  Rx         013C  8  FF FF 00 01 91 11 02 01 
   813)       579.3  Rx     18EF6303  8  10 27 01 EC 00 EF 03 08 
   814)       579.6  Rx     18EF6304  8  00 00 00 04 00 00 00 64 
   815)       579.9  Rx     18EF6305  8  04 03 00 03 00 03 00 00 
   816)       582.1  Rx         00B1  8  0C 09 FF 00 00 FF 1F 1E 
   817)       582.3  Rx         0371  8  E8 4C F2 09 3E 3D 3B 01 
   818)       583.0  Rx         00D1  8  69 09 E0 00 E0 9E FF 64 
   819)       585.0  Rx         01BD  8  FF FF FF 1F FF FF FF 1F 
   820)       585.7  Rx         00A1  8  A1 A7 00 00 00 00 00 00 
   821)       586.0  Rx         00A3  8  4A A7 00 00 00 00 00 00 
   822)       586.5  Rx         009C  8  AA 2E 48 FF 03 14 00 00 
   823)       588.8  Rx         0085  8  3D 0D 00 00 00 55 31 05 
   824)       589.0  Rx         00A9  8  8C 0D 00 00 00 00 00 00 
   825)       589.2  Rx         00AE  8  17 DE BE 03 00 00 68 00 
   826)       589.5  Rx         0110  8  4A 3D E6 05 80 78 00 80 
   827)       589.7  Rx         0113  8  4B 09 00 7D 02 00 2F 01 
   828)       592.0  Rx         00B1  8  38 0A FF 00 00 FF 1F 1E 
   829)       592.3  Rx         027D  8  00 40 01 00 00 00 00 00 
   830)       595.0  Rx         02CC  8  85 37 0E 00 00 6E 49 00 
   831)       595.7  Rx         00B9  8  39 48 00 00 00 00 FF 32 
   832)       596.0  Rx         0099  8  D5 18 00 00 00 20 00 20 
   833)       596.6  Rx         0134  8  02 84 30 55 F4 21 00 00 
   834)       598.0  Rx         0233  8  02 FF 00 00 00 00 00 00 
   835)       598.3  Rx         010B  8  00 00 AF 0B 00 9E 3F 00 
   836)       598.5  Rx         0076  8  0F 7A A0 87 DA 3E 00 00 
   837)       598.8  Rx         00B0  8  08 5F BA 8E FE 7F E7 0F 
   838)       599.1  Rx     18EF6303  8  11 01 01 06 01 01 02 00 
   839)       599.3  Rx     18EF6304  8  01 00 00 00 00 00 00 3A 
   840)       599.6  Rx     18EF6305  8  05 38 36 F0 0C 12 00 00 
   841)       600.0  Rx         03C8  8  FF FF FF FF FF FF FF 8F 
   842)       601.6  Rx         0136  8  00 07 00 04 1C 00 00 00 
   843)       602.1  Rx         00B1  8  05 0B FF 00 00 FF 1F 1E 
   844)       602.3  Rx         0371  8  6A 4D F2 09 3E 3D 3B 01 
   845)       603.0  Rx         00D1  8  FF 0A E0 00 E0 9E FF 64 
   846)       605.7  Rx         00A1  8  38 A8 00 00 00 00 00 00 
   847)       605.9  Rx         00A3  8  38 A8 00 00 00 00 00 00 
   848)       606.5  Rx         009C  8  F9 2F 48 FF 03 14 00 00 
   849)       608.8  Rx         0085  8  26 0E 00 00 00 55 31 05 
   850)       609.0  Rx         00A9  8  F8 0E 00 00 00 00 00 00 
   851)       609.2  Rx         00AE  8  11 DF BE 03 00 00 68 00 
   852)       609.5  Rx         0110  8  97 3E E6 05 80 78 00 80 
   853)       609.7  Rx         0113  8  81 0A 00 7D 02 00 2F 01 
   854)       612.0  Rx         00B1  8  D9 0C FF 00 00 FF 1F 1E 
   855)       612.3  Rx         027D  8  00 40 01 00 00 00 00 00 
   856)       615.8  Rx         00B9  8  CE 49 00 00 00 00 FF 32 
   857)       616.0  Rx         0099  8  A3 19 00 00 00 20 00 20 
   858)       618.3  Rx         010B  8  00 00 AF 0B 00 9E 3F 00 
   859)       618.6  Rx         0076  8  0E 8A A0 87 DA 3E 00 00 
   860)       618.8  Rx         00B0  8  08 5F BA 8E FE 7F E7 0F 
   861)       619.0  Rx         00D3  8  13 00 D0 07 00 C0 00 00 
   862)       619.3  Rx     18EF6303  8  00 DA 00 D9 00 1A 01 7A 
   863)       619.6  Rx     18EF6304  8  02 00 00 49 49 49 E4 0C 
   864)       619.9  Rx     18EF6305  8  00 48 48 48 00 00 49 00 
   865)       622.1  Rx         00B1  8  F8 0D FF 00 00 FF 1F 1E 
   866)       622.3  Rx         0170  8  FF FF 00 00 00 00 00 00 
   867)       622.5  Rx         0371  8  0E 4E F2 09 3E 3D 3B 01 
   868)       623.1  Rx         00D1  8  45 0B E0 00 E0 9E FF 64 
   869)       625.7  Rx         00A1  8  3C A9 00 00 00 00 00 00 
   870)       626.0  Rx         00A3  8  79 A9 00 00 00 00 00 00 
   871)       626.6  Rx         009C  8  E3 20 48 FF 03 14 00 00 
   872)       627.0  Rx         0489  8  00 34 38 82 43 6F 66 00 
   873)       628.4  Rx         013B  8  8D 01 00 00 00 E3 46 04 
   874)       628.8  Rx         0085  8  1A 0F 00 00 00 55 31 05 
   875)       629.0  Rx         00A9  8  32 0F 00 00 00 00 00 00 
   876)       629.3  Rx         00AE  8  03 D0 BE 03 00 00 68 00 
   877)       629.5  Rx         0110  8  60 3F E6 05 80 78 00 80 
   878)       629.8  Rx         0113  8  3C 0B 00 7D 02 00 2F 01 
   879)       630.0  Rx         007F  8  FF 3F FF 1F FF 3F FF 1F 
   880)       630.2  Rx         02BB  8  44 FF 7F FF CF 20 FF 3D 
   881)       632.0  Rx         00B1  8  7D 0E FF 00 00 FF 1F 1E 
   882)       632.3  Rx         027D  8  00 40 01 00 00 00 00 00 
   883)       635.7  Rx         00B9  8  56 4A 00 00 00 00 FF 32 
   884)       636.0  Rx         0099  8  39 1A 00 00 00 20 00 20 
   885)       637.1  Rx         02B8  8  FF FF FF FF FF 1F 00 00 
   886)       638.0  Rx         0161  8  4B 48 01 00 00 00 FF 01 
   887)       638.2  Rx         0020  8  FE 06 40 0C C0 00 00 00 
   888)       638.5  Rx         010B  8  00 00 AF 0B 00 9E 3F 00 
   889)       638.7  Rx         0076  8  0E 8A A0 87 DA 3E 00 00 
   890)       639.0  Rx         00B0  8  08 5F BA 8E FE 7F E7 0F 
   891)       639.2  Rx         01E4  8  00 00 00 00 00 00 00 00 
   892)       639.5  Rx     18EF6303  8  01 EA 00 00 00 E1 00 03 
   893)       639.8  Rx     18EF6304  8  03 00 00 00 00 00 00 00 
   894)       640.1  Rx     18EF6305  8  01 00 00 00 00 00 00 11 
   895)       642.0  Rx         00B1  8  81 0F FF 00 00 FF 1F 1E 
   896)       642.3  Rx         0173  8  00 00 00 00 00 00 F0 3F 
   897)       642.6  Rx         0371  8  8C 4F F2 09 3E 3D 3B 01 
   898)       643.1  Rx         00D1  8  14 FC DF 00 E0 9E FF 64 
   899)       645.7  Rx         00A1  8  4A AA 00 00 00 00 00 00 
   900)       646.0  Rx         00A3  8  6E AA 00 00 00 00 00 00 
   901)       646.6  Rx         009C  8  8D 21 48 FF 03 14 00 00 
   902)       648.7  Rx         0085  8  90 00 00 00 00 55 31 05 
   903)       649.0  Rx         00A9  8  EA 00 00 00 00 00 00 00 
   904)       649.3  Rx         00AE  8  90 D1 BE 03 00 00 68 00 
   905)       649.5  Rx         0110  8  A4 30 E6 05 80 78 00 80 
   906)       649.7  Rx         0113  8  DA 0C 00 7D 02 00 2F 01 
   907)       649.9  Rx         0151  8  60 FF FA 92 00 80 BC C4 
   908)       650.2  Rx     0BA40000  8  20 00 00 00 00 00 00 00 
   909)       651.6  Rx         0138  8  00 00 44 45 FC 1F 00 00 
   910)       652.0  Rx         00B1  8  A3 00 FF 00 00 FF 1F 1E 
   911)       652.3  Rx         027D  8  00 40 01 00 00 00 00 00 
   912)       655.0  Rx         02CB  8  00 00 3D 3C FF 2A 00 00 
   913)       655.7  Rx         00B9  8  A1 4B 00 00 00 00 FF 32 
   914)       656.0  Rx         0099  8  4F 1B 00 00 00 20 00 20 
   915)       658.3  Rx         010B  8  00 00 AF 0B 00 9E 3F 00 
   916)       658.6  Rx         0076  8  0E 7A A0 87 DA 3E 00 00 
   917)       658.8  Rx         00B0  8  08 5F BA 8E FE 7F E7 0F 
   918)       659.1  Rx     18EF6303  8  02 F0 00 E4 00 E2 00 00 
   919)       659.4  Rx     18EF6304  8  04 00 00 00 00 00 00 00 
   920)       659.6  Rx     18EF6305  8  02 00 00 04 00 01 E8 4E 
   921)       660.0  Rx     04880001  8  0A 5F 00 00 00 00 00 00 
   922)       662.1  Rx         00B1  8  08 01 FF 00 00 FF 1F 1E 
   923)       662.3  Rx         0371  8  AF 40 F2 09 3E 3D 3B 01 
   924)       663.1  Rx         00D1  8  4C FD DF 00 E0 9E FF 64 
   925)       663.3  Rx         0071  8  00 57 31 4E 32 34 33 37 
   926)       665.7  Rx         00A1  8  D1 AB 00 00 00 00 00 00 
   927)       666.0  Rx         00A3  8  81 AB 00 00 00 00 00 00 
   928)       666.5  Rx         009C  8  DC 22 48 FF 03 14 00 00 
   929)       667.0  Rx         02D3  8  7A FF 47 0B 7E 00 80 DF 
   930)       667.3  Rx         0068  1  02 
   931)       668.8  Rx         0085  8  4A 01 00 00 00 55 31 05 
   932)       669.0  Rx         00A9  8  53 01 00 00 00 00 00 00 
   933)       669.2  Rx         00AE  8  78 D2 BE 03 00 00 68 00 
   934)       669.5  Rx         0110  8  B1 31 E6 05 80 78 00 80 
   935)       669.7  Rx         0113  8  78 0D 00 7D 02 00 2F 01 
   936)       672.0  Rx         00B1  8  1F 02 FF 00 00 FF 1F 1E 
   937)       672.3  Rx         027D  8  00 40 01 00 00 00 00 00 
   938)       672.5  Rx         02CA  8  FF FF FF 03 00 00 00 00 
   939)       675.1  Rx         0493  8  23 00 21 00 DD 05 91 7E 
   940)       675.7  Rx         00B9  8  C3 4C 00 00 00 00 FF 32 
   941)       676.0  Rx         0099  8  22 1C 00 00 00 20 00 20 
   942)       678.3  Rx         010B  8  00 00 AF 0B 00 9E 3F 00 
   943)       678.5  Rx         0076  8  0E 7A A0 87 DA 3E 00 00 
   944)       678.8  Rx         00B0  8  08 5F BA 8E FE 7F E7 0F 
   945)       679.0  Rx         013C  8  FF FF 00 01 70 12 02 01 
   946)       679.3  Rx     18EF6303  8  03 00 00 40 1F 01 02 58 
   947)       679.6  Rx     18EF6304  8  05 00 00 00 00 00 00 00 
   948)       679.9  Rx     18EF6305  8  03 00 00 00 00 00 00 0C 
   949)       682.1  Rx         00B1  8  B4 03 FF 00 00 FF 1F 1E 
   950)       682.3  Rx         0371  8  CE 41 F2 09 3E 3D 3B 01 
   951)       683.0  Rx         00D1  8  3D 0E E0 00 E0 9E FF 64 
   952)       683.3  Rx         0071  8  01 31 32 32 4A 30 32 33 
   953)       685.0  Rx         01BD  8  FF FF FF 1F FF FF FF 1F 
   954)       685.7  Rx         00A1  8  37 AC 00 00 00 00 00 00 
   955)       686.0  Rx         00A3  8  7F AC 00 00 00 00 00 00 
   956)       686.5  Rx         009C  8  C7 23 48 FF 03 14 00 00 
   957)       688.8  Rx         0085  8  8C 02 00 00 00 55 31 05 
   958)       689.0  Rx         00A9  8  51 02 00 00 00 00 00 00 
   959)       689.2  Rx         00AE  8  53 D3 BE 03 00 00 68 00 
   960)       689.5  Rx         0110  8  D9 32 E6 05 80 78 00 80 
   961)       689.7  Rx         0113  8  B1 0E 00 7D 02 00 2F 01 
   962)       692.0  Rx         00B1  8  E2 04 FF 00 00 FF 1F 1E 
   963)       692.3  Rx         027D  8  00 40 01 00 00 00 00 00 
   964)       695.8  Rx         00B9  8  63 4D 00 00 00 00 FF 32 
   965)       696.0  Rx         0099  8  27 1D 00 00 00 20 00 20 
   966)       696.6  Rx         0134  8  02 84 30 55 F4 21 00 00 
   967)       698.0  Rx         0233  8  02 FF 00 00 00 00 00 00 
   968)       698.3  Rx         010B  8  00 00 AF 0B 00 9E 3F 00 
   969)       698.6  Rx         0076  8  0E 7A A0 87 DA 3E 00 00 
   970)       698.8  Rx         03F2  8  FF 01 00 00 00 00 7A FF 
   971)       699.0  Rx         00B0  8  08 5F BA 8E FE 7F E7 0F 
   972)       699.3  Rx     18EF6303  8  04 13 11 00 13 1D 20 00 
   973)       699.6  Rx     18EF6304  8  06 00 00 00 00 00 00 54 
   974)       699.9  Rx     18EF6305  8  04 03 00 03 00 03 00 00 
   975)       701.6  Rx         0136  8  00 07 00 04 1C 00 00 00 
   976)       702.1  Rx         00B1  8  AF 05 FF 00 00 FF 1F 1E 
   977)       702.3  Rx         0371  8  84 42 F2 09 3E 3D 3B 01 
   978)       703.1  Rx         00D1  8  4A 0F E0 00 E0 9E FF 64 
   979)       703.3  Rx         0071  8  02 31 32 32 FF FF FF FF 
   980)       705.7  Rx         00A1  8  1C AD 00 00 00 00 00 00 
   981)       706.0  Rx         00A3  8  46 AD 00 00 00 00 00 00 
   982)       706.6  Rx         009C  8  2E 24 48 FF 03 14 00 00 
   983)       708.8  Rx         0085  8  0C 03 00 00 00 55 31 05 
   984)       709.0  Rx         00A9  8  0E 03 00 00 00 00 00 00 
   985)       709.2  Rx         00AE  8  DC D4 BE 03 00 00 68 00 
   986)       709.5  Rx         0110  8  70 33 E6 05 80 78 00 80 
   987)       709.7  Rx         0113  8  14 0F 00 7D 02 00 2F 01 
   988)       712.0  Rx         00B1  8  9B 06 FF 00 00 FF 1F 1E 
   989)       712.3  Rx         027D  8  00 40 01 00 00 00 00 00 
   990)       715.7  Rx         00B9  8  02 4E 00 00 00 00 FF 32 
   991)       716.0  Rx         0099  8  CE 1E 00 00 00 20 00 20 
   992)       718.3  Rx         010B  8  00 00 AF 0B 00 9E 3F 00 
   993)       718.5  Rx         0076  8  0E 7A A0 87 DA 3E 00 00 
   994)       718.8  Rx         00B0  8  08 5F BA 8E FE 7F E7 0F 
   995)       719.0  Rx         00D3  8  13 00 D0 07 00 C0 00 00 
   996)       719.3  Rx     18EF6303  8  05 00 00 00 00 00 00 01 
   997)       719.6  Rx     18EF6304  8  07 D7 05 9D 16 DC 0C 00 
   998)       719.9  Rx     18EF6305  8  05 38 36 F0 0C 12 00 00 
   999)       722.0  Rx         00B1  8  35 07 FF 00 00 FF 1F 1E 
  1000)       722.3  Rx         0170  8  FF FF 00 00 00 00 00 00 
  1001)       722.6  Rx         0371  8  76 43 F2 09 3E 3D 3B 01 
  1002)       723.1  Rx         00D1  8  09 00 E0 00 E0 9E FF 64 
  1003)       725.7  Rx         00A1  8  6B AE 00 00 00 00 00 00 
  1004)       726.0  Rx         00A3  8  F4 AE 00 00 00 00 00 00 
  1005)       726.6  Rx         009C  8  6A 25 48 FF 03 14 00 00 
  1006)       728.5  Rx         013B  8  A0 02 00 00 00 E3 46 04 
  1007)       728.8  Rx         0085  8  FF 04 00 00 00 55 31 05 
  1008)       729.0  Rx         009A  8  88 13 00 00 00 00 80 7E 
  1009)       729.3  Rx         00A9  8  B3 04 00 00 00 00 00 00 
  1010)       729.5  Rx         00AE  8  40 D5 BE 03 00 00 68 00 
  1011)       729.8  Rx         0110  8  09 34 E6 05 80 78 00 80 
  1012)       730.0  Rx         0113  8  84 00 00 7D 02 00 2F 01 
  1013)       730.2  Rx         007F  8  FF 3F FF 1F FF 3F FF 1F 
  1014)       730.4  Rx         02BB  8  44 FF 7F FF CF 20 FF 3D 
  1015)       730.7  Rx         02FC  8  9C 33 00 00 00 00 00 00 
  1016)       732.0  Rx         003F  8  1A 7B 00 00 01 00 FC 5F 
  1017)       732.3  Rx         00B1  8  41 08 FF 00 00 FF 1F 1E 
  1018)       732.5  Rx         027D  8  00 40 01 00 00 00 00 00 
  1019)       732.8  Rx         0559  8  04 59 0B 04 00 00 00 00 
  1020)       733.2  Rx         046B  8  00 00 3C 50 50 B8 4C 10 
  1021)       735.7  Rx         00B9  8  7F 4F 00 00 00 00 FF 32 
  1022)       736.0  Rx         0099  8  A4 1F 00 00 00 20 00 20 
  1023)       737.0  Rx         026A  8  6F 01 DC E2 FE FE FF FF 
  1024)       737.3  Rx         02B8  8  FF FF FF FF FF 1F 00 00 
  1025)       738.3  Rx         0020  8  BF 07 40 0C C0 00 00 00 
  1026)       738.5  Rx         010B  8  00 00 AF 0B 00 9E 3F 00 
  1027)       738.7  Rx         0076  8  0E 7A A0 87 DA 3E 00 00 
  1028)       738.9  Rx         00B0  8  08 5F BA 8E FE 7F E7 0F 
  1029)       739.2  Rx         01E4  8  00 00 00 00 00 00 00 00 
  1030)       739.3  Rx         02CE  2  3F 00 
  1031)       739.6  Rx         044B  8  00 00 00 5E 1D 4C 07 04 
  1032)       739.9  Rx     18EF6303  8  06 BC 02 BC 02 00 00 00 
  1033)       740.1  Rx     18EF6304  8  00 00 00 04 00 00 00 64 
  1034)       740.4  Rx     18EF6305  8  00 48 48 48 00 00 49 00 
  1035)       742.1  Rx         00B1  8  0C 09 FF 00 00 FF 1F 1E 
  1036)       742.3  Rx         0173  8  00 00 00 00 00 00 F0 3F 
  1037)       742.5  Rx         0371  8  83 44 F2 09 3E 3D 3B 01 
  1038)       742.8  Rx         03EA  8  00 00 00 00 00 00 00 00 
  1039)       743.1  Rx         00D1  8  0D 01 E0 00 E0 9E FF 64 
  1040)       745.7  Rx         00A1  8  89 AF 00 00 00 00 00 00 
  1041)       746.0  Rx         00A3  8  7D AF 00 00 00 00 00 00 
  1042)       746.5  Rx         009C  8  64 26 48 FF 03 14 00 00 
  1043)       748.8  Rx         0085  8  B3 05 00 00 00 55 31 05 
  1044)       749.0  Rx         00A9  8  0A 05 00 00 00 00 00 00 
  1045)       749.2  Rx         00AE  8  FD D6 BE 03 00 00 68 00 
  1046)       749.5  Rx         0110  8  1C 35 E6 05 80 78 00 80 
  1047)       749.7  Rx         0113  8  63 01 00 7D 02 00 2F 01 
  1048)       749.9  Rx         0151  8  60 FF FA 92 00 80 10 C5 
  1049)       750.2  Rx     0BA40000  8  20 00 00 00 00 00 00 00 
  1050)       750.5  Rx         045A  8  97 E3 E5 E8 02 46 15 CB 
  1051)       750.8  Rx     12900000  8  00 FE 01 FF 7F 50 5A 00 
  1052)       751.6  Rx         0138  8  00 00 44 45 FC 1F 00 00 
  1053)       752.0  Rx         00B1  8  38 0A FF 00 00 FF 1F 1E 
  1054)       752.3  Rx         027D  8  00 40 01 00 00 00 00 00 
  1055)       752.4  Rx         03CA  2  FF FF 
  1056)       755.1  Rx         02CB  8  00 00 3D 3C FF 2A 00 00 
  1057)       755.7  Rx         00B9  8  8D 40 00 00 00 00 FF 32 
  1058)       756.0  Rx         0099  8  EA 10 00 00 00 20 00 20 
  1059)       758.3  Rx         010B  8  00 00 AF 0B 00 9E 3F 00 
  1060)       758.6  Rx         0076  8  0E 7A A0 87 DA 3E 00 00 
  1061)       758.8  Rx         00B0  8  08 5F BA 8E FE 7F E7 0F 
  1062)       759.1  Rx     18EF6303  8  07 00 00 00 AC 0D 80 0C 
  1063)       759.4  Rx     18EF6304  8  01 00 00 00 00 00 00 3C 
  1064)       759.7  Rx     18EF6305  8  01 00 00 00 00 00 00 1D 
  1065)       760.0  Rx     04880001  8  0A 5F 00 00 00 00 00 00 
  1066)       762.1  Rx         00B1  8  05 0B FF 00 00 FF 1F 1E 
  1067)       762.3  Rx         0371  8  E2 45 F2 09 3E 3D 3B 01 
  1068)       762.5  Rx         03CC  8  00 00 00 00 00 00 00 3D 
  1069)       763.1  Rx         00D1  8  BF F2 DF 00 E0 9E FF 64 
  1070)       765.7  Rx         00A1  8  E7 A0 00 00 00 00 00 00 
  1071)       765.9  Rx         00A3  8  77 A0 00 00 00 00 00 00 
  1072)       766.5  Rx         009C  8  B6 27 48 FF 03 14 00 00 
  1073)       767.0  Rx         02D3  8  7A FF 47 0B 7E 00 40 CF 
  1074)       768.8  Rx         0085  8  1D 06 00 00 00 55 31 05 
  1075)       769.0  Rx         00A9  8  4A 06 00 00 00 00 00 00 
  1076)       769.2  Rx         00AE  8  E6 D7 BE 03 00 00 68 00 
  1077)       769.5  Rx         0110  8  23 36 E6 05 80 78 00 80 
  1078)       769.7  Rx         0113  8  86 02 00 7D 02 00 2F 01 
  1079)       770.0  Rx         02FA  8  FF 00 78 00 80 E0 00 1C 
  1080)       772.0  Rx         00B1  8  D9 0C FF 00 00 FF 1F 1E 
  1081)       772.3  Rx         027D  8  00 40 01 00 00 00 00 00 
  1082)       772.5  Rx         02CA  8  FF FF FF 03 00 00 00 00 
  1083)       775.1  Rx         0493  8  23 00 21 00 DD 05 91 7E 
  1084)       775.8  Rx         00B9  8  DD 41 00 00 00 00 FF 32 
  1085)       776.0  Rx         0099  8  EF 11 00 00 00 20 00 20 
  1086)       778.3  Rx         010B  8  00 00 AF 0B 00 9E 3F 00 
  1087)       778.5  Rx         0076  8  0E 8A A0 87 DA 3E 00 00 
  1088)       778.8  Rx         00B0  8  08 5F BA 8E FE 7F E7 0F 
  1089)       779.0  Rx         013C  8  FF FF 00 01 C9 13 02 01 
  1090)       779.3  Rx     18EF6303  8  08 00 00 00 00 64 64 64 
  1091)       779.6  Rx     18EF6304  8  02 00 00 49 49 49 E4 0C 
  1092)       779.9  Rx     18EF6305  8  02 00 00 04 00 01 E8 4E 
  1093)       782.1  Rx         00B1  8  F8 0D FF 00 00 FF 1F 1E 
  1094)       782.3  Rx         0371  8  A8 46 F2 09 3E 3D 3B 01 
  1095)       782.6  Rx     12880000  8  00 00 00 00 FE 03 00 00 
  1096)       782.8  Rx     12B40000  8  E3 4F A7 C4 12 49 81 3E 
  1097)       783.1  Rx         00D1  8  5D F3 DF 00 E0 9E FF 64 
  1098)       785.0  Rx         01BD  8  FF FF FF 1F FF FF FF 1F 
  1099)       785.7  Rx         00A1  8  BA A1 00 00 00 00 00 00 
  1100)       786.0  Rx         00A3  8  4E A1 00 00 00 00 00 00 
  1101)       786.6  Rx         009C  8  C6 28 48 FF 03 14 00 00 
  1102)       787.0  Rx         0450  8  00 00 20 08 03 B4 19 00 
  1103)       788.8  Rx         0085  8  28 07 00 00 00 55 31 05 
  1104)       789.0  Rx         00A9  8  80 07 00 00 00 00 00 00 
  1105)       789.2  Rx         00AE  8  98 D8 BE 03 00 00 68 00 
  1106)       789.5  Rx         0110  8  DD 37 E6 05 80 78 00 80 
  1107)       789.7  Rx         0113  8  87 03 00 7D 02 00 2F 01 
  1108)       790.0  Rx     0BD80000  8  08 00 00 C0 00 80 3F 3E 
  1109)       792.1  Rx         00B1  8  7D 0E FF 00 00 FF 1F 1E 
  1110)       792.3  Rx         027D  8  00 40 01 00 00 00 00 00 
  1111)       792.6  Rx     12F00000  8  09 64 A1 00 02 02 00 00 
  1112)       795.0  Rx         02CC  8  85 37 0E 00 00 6E 49 00 
  1113)       795.8  Rx         00B9  8  E2 42 00 00 00 00 FF 32 
  1114)       796.0  Rx         0099  8  F8 12 00 00 00 20 00 20 
  1115)       796.5  Rx         0134  8  02 84 30 55 F4 21 00 00 
  1116)       798.0  Rx         0233  8  02 FF 00 00 00 00 00 00 
  1117)       798.3  Rx         010B  8  00 00 AF 0B 00 9E 3F 00 
  1118)       798.5  Rx         0076  8  0E 8A A0 87 DA 3E 00 00 
  1119)       798.8  Rx         00B0  8  08 5F BA 8E FE 7F E7 0F 
  1120)       799.1  Rx     18EF6303  8  09 E3 29 01 88 13 00 00 
  1121)       799.4  Rx     18EF6304  8  03 00 00 00 00 00 00 00 
  1122)       799.7  Rx     18EF6305  8  03 00 00 00 00 00 00 0C 
  1123)       801.6  Rx         0136  8  00 07 00 04 1C 00 00 00 
  1124)       802.0  Rx         00B1  8  81 0F FF 00 00 FF 1F 1E 
  1125)       802.3  Rx     0BE00000  8  CE 09 FE 3F 08 00 00 00 
  1126)       802.6  Rx         0371  8  EF 47 F2 09 3E 3D 3B 01 
  1127)       803.1  Rx         00D1  8  1A F4 DF 00 E0 9E FF 64 
  1128)       805.7  Rx         00A1  8  90 A2 00 00 00 00 00 00 
  1129)       806.0  Rx         00A3  8  D2 A2 00 00 00 00 00 00 
  1130)       806.5  Rx         009C  8  EB 29 48 FF 03 14 00 00 
  1131)       807.0  Rx         0431  8  3E 1E FE FF EF E9 00 00 
  1132)       808.7  Rx         0085  8  D4 08 00 00 00 55 31 05 
  1133)       809.0  Rx         00A9  8  1F 08 00 00 00 00 00 00 
  1134)       809.2  Rx         00AE  8  CB D9 BE 03 00 00 68 00 
  1135)       809.5  Rx         0110  8  0C 38 E6 05 80 78 00 80 
  1136)       809.7  Rx         0113  8  AC 04 00 7D 02 00 2F 01 
  1137)       809.9  Rx         0162  8  11 40 0B 0F E7 7F FF 5A 
  1138)       810.2  Rx         0160  8  30 40 05 AA AA AA AA AA 
  1139)       812.0  Rx         00B1  8  A3 00 FF 00 00 FF 1F 1E 
  1140)       812.3  Rx         027D  8  00 40 01 00 00 00 00 00 
  1141)       812.6  Rx     0BD40000  8  04 00 00 C0 FF 01 00 80 
  1142)       812.8  Rx         0162  8  21 01 03 01 21 0F EA 01 
  1143)       815.7  Rx         00B9  8  F7 43 00 00 00 00 FF 32 
  1144)       816.0  Rx         0099  8  8E 13 00 00 00 20 00 20 
  1145)       816.6  Rx     128C0000  8  FF FF 01 00 00 00 00 00 
  1146)       817.1  Rx         0443  8  20 00 00 00 22 00 0C 00 
  1147)       818.3  Rx         010B  8  00 00 AF 0B 00 9E 3F 00 
  1148)       818.6  Rx         0076  8  0E 8A A0 87 DA 3E 00 00 
  1149)       818.8  Rx         00B0  8  08 5F BA 8E FE 7F E7 0F 
  1150)       819.0  Rx         00D3  8  13 00 D0 07 00 C0 00 00 
  1151)       819.3  Rx     18EF6303  8  0A 80 0C 00 00 00 00 20 
  1152)       819.6  Rx     18EF6304  8  04 00 00 00 00 00 00 00 
  1153)       819.9  Rx     18EF6305  8  04 03 00 03 00 03 00 00 
  1154)       822.1  Rx         00B1  8  08 01 FF 00 00 FF 1F 1E 
  1155)       822.3  Rx         0170  8  FF FF 00 00 00 00 00 00 
  1156)       822.6  Rx         0371  8  4B 48 F2 09 3E 3D 3B 01 
  1157)       822.8  Rx         0162  8  22 02 0F E4 01 18 47 01 
  1158)       823.1  Rx         00D1  8  7C F5 DF 01 E0 9E FF 64 
  1159)       825.7  Rx         00A1  8  2F A3 00 00 00 00 00 00 
  1160)       826.0  Rx         00A3  8  75 A3 00 00 00 00 00 00 
  1161)       826.5  Rx         009C  8  44 2A 48 FF 03 14 00 00 
  1162)       827.0  Rx         0489  8  00 34 38 82 43 6F 66 00 
  1163)       828.4  Rx         013B  8  38 03 00 00 00 E3 46 04 
  1164)       828.8  Rx         0085  8  AC 09 00 00 00 55 31 05 
  1165)       829.0  Rx         00A9  8  D5 09 00 00 00 00 00 00 
  1166)       829.3  Rx         00AE  8  05 DA BE 03 00 00 68 00 
  1167)       829.5  Rx         0110  8  E7 39 E6 05 80 78 00 80 
  1168)       829.7  Rx         0113  8  F7 05 00 7D 02 00 2F 01 
  1169)       830.0  Rx         02BB  8  44 FF 7F FF CF 20 FF 3D 
  1170)       830.2  Rx         007F  8  FF 3F FF 1F FF 3F FF 1F 
  1171)       830.5  Rx         0448  8  E0 09 00 3B 38 3D 3E 3B 
  1172)       832.0  Rx         00B1  8  1F 02 FF 00 00 FF 1F 1E 
  1173)       832.3  Rx         027D  8  00 40 01 00 00 00 00 00 
  1174)       832.6  Rx     0BE40000  8  EF 09 FE 3F 00 00 00 00 
  1175)       832.8  Rx         0162  8  23 06 46 24 B7 00 02 9A 
  1176)       835.0  Rx         013D  8  EB 02 29 0E 3D 2E 63 10 
  1177)       835.7  Rx         00B9  8  20 44 00 00 00 00 FF 32 
  1178)       836.0  Rx         0099  8  05 14 00 00 00 20 00 20 
  1179)       837.0  Rx         02B8  8  FF FF FF FF FF 1F 00 00 
  1180)       838.0  Rx         0161  8  4B 48 01 00 00 00 FF 01 
  1181)       838.3  Rx         0020  8  09 08 40 0C C0 00 00 00 
  1182)       838.5  Rx         010B  8  00 00 AF 0B 00 9E 3F 00 
  1183)       838.7  Rx         0076  8  0E 8A A0 87 DA 3E 00 00 
  1184)       839.0  Rx         00B0  8  08 5F BA 8E FE 7F E7 0F 
  1185)       839.2  Rx         01E4  8  00 00 00 00 00 00 00 00 
  1186)       839.5  Rx     18EF6303  8  0B 00 00 00 00 00 00 06 
  1187)       839.8  Rx     18EF6304  8  05 00 00 00 00 00 00 00 
  1188)       840.1  Rx     18EF6305  8  05 38 36 F0 0C 12 00 00 
  1189)       842.1  Rx         00B1  8  B4 03 FF 00 00 FF 1F 1E 
  1190)       842.3  Rx         0173  8  00 00 00 00 00 00 F0 3F 
  1191)       842.5  Rx         0371  8  2A 49 F2 09 3E 3D 3B 01 
  1192)       842.8  Rx         0162  8  24 00 00 00 00 00 00 00 
  1193)       843.1  Rx         00D1  8  DF F6 DF 01 E0 9E FF 64 
  1194)       845.0  Rx         03FD  8  6F 40 FF FF DD 68 60 00 
  1195)       845.7  Rx         00A1  8  73 A4 00 00 00 00 00 00 
  1196)       846.0  Rx         00A3  8  3B A4 00 00 00 00 00 00 
  1197)       846.5  Rx         009C  8  BC 2B 48 FF 03 14 00 00 
  1198)       848.8  Rx         0085  8  02 0A 00 00 00 55 31 05 
  1199)       849.0  Rx         00A9  8  42 0A 00 00 00 00 00 00 
  1200)       849.2  Rx         00AE  8  B8 DB BE 03 00 00 68 00 
  1201)       849.5  Rx         0110  8  3A 3A E6 05 80 78 00 80 
  1202)       849.7  Rx         0113  8  4D 06 00 7D 02 00 2F 01 
  1203)       850.0  Rx         0151  8  60 FF FA 92 00 80 CB C6 
  1204)       850.2  Rx         0199  8  6B AC C8 FF F1 7F 00 80 
  1205)       850.5  Rx     0BA40000  8  20 00 00 00 00 00 00 00 
  1206)       851.6  Rx         0138  8  00 00 44 45 FC 1F 00 00 
  1207)       852.0  Rx         00B1  8  E2 04 FF 00 00 FF 1F 1E 
  1208)       852.3  Rx         027D  8  00 40 01 00 00 00 00 00 
  1209)       852.8  Rx         0162  8  25 01 1A 30 30 30 50 45 
  1210)       853.2  Rx         0302  8  0D 15 2C 01 00 00 00 00 
  1211)       853.4  Rx         04C0  8  2E 05 00 FE EF FF 00 00 
  1212)       855.0  Rx         02CB  8  00 00 3D 3C FF 2A 00 00 
  1213)       855.3  Rx         03BE  8  E6 8F D2 5D 7C 01 5C 03 
  1214)       855.8  Rx         00B9  8  CB 45 00 00 00 00 FF 32 
  1215)       856.0  Rx         0099  8  E6 15 00 00 00 20 00 20 
  1216)       858.3  Rx         010B  8  00 00 AF 0B 00 9E 3F 00 
  1217)       858.6  Rx         0076  8  0E 8A A0 87 DA 3E 00 00 
  1218)       858.8  Rx         0041  8  FD 9F 00 00 30 03 80 FF 
  1219)       859.0  Rx         00B0  8  08 5F BA 8E FE 7F E7 0F 
  1220)       859.3  Rx     18EF6303  8  0C BD 2F D7 00 D5 00 06 
  1221)       859.6  Rx     18EF6304  8  06 00 00 00 00 00 00 54 
  1222)       859.9  Rx     18EF6305  8  00 48 48 48 00 00 48 00 
  1223)       860.2  Rx     04880001  8  0A 5F 00 00 00 00 00 00 
  1224)       862.1  Rx         00B1  8  AF 05 FF 00 00 FF 1F 1E 
  1225)       862.3  Rx         0371  8  60 4A F2 09 3E 3D 3B 01 
  1226)       862.8  Rx         0162  8  26 50 42 53 4B 49 33 37 
  1227)       863.1  Rx         00D1  8  13 07 E0 00 E0 9E FF 64 
  1228)       865.7  Rx         00A1  8  E2 A5 00 00 00 00 00 00 
  1229)       866.0  Rx         00A3  8  1C A5 00 00 00 00 00 00 
  1230)       866.2  Rx         02F7  8  36 B3 EF 76 35 18 3F C3 
  1231)       866.6  Rx         009C  8  73 2C 48 FF 03 14 00 00 
  1232)       867.0  Rx         02D3  8  7A FF 47 0B 7E 00 80 DF 
  1233)       867.2  Rx         0068  1  02 
  1234)       868.7  Rx         0085  8  60 0B 00 00 00 55 31 05 
  1235)       869.0  Rx         00A9  8  88 0B 00 00 00 00 00 00 
  1236)       869.2  Rx         00AE  8  32 DC BE 03 00 00 68 00 
  1237)       869.5  Rx         0110  8  9A 3B E6 05 80 78 00 80 
  1238)       869.7  Rx         0113  8  44 07 00 7D 02 00 2F 01 
  1239)       872.1  Rx         00B1  8  9B 06 FF 00 00 FF 1F 1E 
  1240)       872.3  Rx         027D  8  00 40 01 00 00 00 00 00 
  1241)       872.5  Rx         02CA  8  FF FF FF 03 00 00 00 00 
  1242)       872.8  Rx         0162  8  27 41 48 36 43 32 30 30 
  1243)       875.1  Rx         0493  8  23 00 21 00 DD 05 91 7E 
  1244)       875.7  Rx         00B9  8  AA 46 00 00 00 00 FF 32 
  1245)       876.0  Rx         0099  8  0F 16 00 00 00 20 00 20 
  1246)       877.1  Rx         0489  8  00 34 38 82 43 70 66 00 
  1247)       878.3  Rx         010B  8  00 00 AF 0B 00 9E 3F 00 
  1248)       878.5  Rx         0076  8  0E 8A A0 87 DA 3E 00 00 
  1249)       878.8  Rx         00B0  8  08 5F BA 8E FE 7F E7 0F 
  1250)       879.0  Rx         013C  8  FF FF 00 01 4E 14 02 01 
  1251)       879.3  Rx     18EF6303  8  0D 00 00 40 1F AC 0D 00 
  1252)       879.6  Rx     18EF6304  8  07 D7 05 97 16 DB 0C 00 
  1253)       879.9  Rx     18EF6305  8  01 00 00 00 00 00 00 29 
  1254)       882.1  Rx         00B1  8  35 07 FF 00 00 FF 1F 1E 
  1255)       882.3  Rx         0371  8  FE 4B F2 09 3E 3D 3B 01 
  1256)       882.8  Rx         0162  8  28 30 30 30 30 31 30 30 
  1257)       883.1  Rx         00D1  8  8D 08 E0 00 E0 9E FF 64 
  1258)       885.0  Rx         01BD  8  FF FF FF 1F FF FF FF 1F 
  1259)       885.7  Rx         00A1  8  6C A6 00 00 00 00 00 00 
  1260)       886.0  Rx         00A3  8  95 A6 00 00 00 00 00 00 
  1261)       886.5  Rx         009C  8  AC 2D 48 FF 03 14 00 00 
  1262)       888.7  Rx         0085  8  9A 0C 00 00 00 55 31 05 
  1263)       889.0  Rx         00A9  8  46 0C 00 00 00 00 00 00 
  1264)       889.2  Rx         00AE  8  6A DD BE 03 00 00 68 00 
  1265)       889.5  Rx         0110  8  44 3C E6 05 80 78 00 80 
  1266)       889.7  Rx         0113  8  10 08 00 7D 02 00 2F 01 
  1267)       889.9  Rx         02B4  8  7F BE BF 7F 00 FA FB 3F 
  1268)       890.2  Rx         04BE  8  2C 01 1E 8E 01 00 00 00 
  1269)       892.1  Rx         00B1  8  41 08 FF 00 00 FF 1F 1E 
  1270)       892.3  Rx         027D  8  00 40 01 00 00 00 00 00 
  1271)       892.8  Rx         0162  8  29 01 03 0F E7 7F FF 00 
  1272)       895.7  Rx         00B9  8  0A 47 00 00 00 00 FF 32 
  1273)       896.0  Rx         0099  8  0A 17 00 00 00 20 00 20 
  1274)       896.5  Rx         0134  8  02 84 30 55 F4 21 00 00 
  1275)       896.8  Rx         0491  8  00 00 00 00 00 00 00 00 
  1276)       898.0  Rx         0233  8  02 FF 00 00 00 00 00 00 
  1277)       898.3  Rx         010B  8  00 00 AF 0B 00 9E 3F 00 
  1278)       898.6  Rx         0076  8  0E 8A A0 87 DA 3E 00 00 
  1279)       898.8  Rx         03F2  8  FF 01 00 00 00 00 7A FF 
  1280)       899.0  Rx         00B0  8  08 5F BA 8E FE 7F E7 0F 
  1281)       899.3  Rx     18EF6303  8  0E 54 0D AC 0D 40 1F 00 
  1282)       899.6  Rx     18EF6304  8  00 00 00 04 00 00 00 64 
  1283)       899.9  Rx     18EF6305  8  02 00 00 04 00 01 E8 4E 
  1284)       901.5  Rx         0136  8  00 07 00 04 1C 00 00 00 
  1285)       902.0  Rx         00B1  8  0C 09 FF 00 00 FF 1F 1E 
  1286)       902.3  Rx         0371  8  E8 4C F2 09 3E 3D 3B 01 
  1287)       902.8  Rx         0162  8  2A 64 0F E7 0F E4 0F E7 
  1288)       903.1  Rx         00D1  8  69 09 E0 00 E0 9E FF 64 
  1289)       905.7  Rx         00A1  8  A1 A7 00 00 00 00 00 00 
  1290)       906.0  Rx         00A3  8  4A A7 00 00 00 00 00 00 
  1291)       906.5  Rx         009C  8  AA 2E 48 FF 03 14 00 00 
  1292)       908.7  Rx         0085  8  3D 0D 00 00 00 55 31 05 
  1293)       909.0  Rx         00A9  8  8C 0D 00 00 00 00 00 00 
  1294)       909.2  Rx         00AE  8  17 DE BE 03 00 00 68 00 
  1295)       909.5  Rx         0110  8  4A 3D E6 05 80 78 00 80 
  1296)       909.7  Rx         0113  8  4B 09 00 7D 02 00 2F 01 
  1297)       912.0  Rx         00B1  8  38 0A FF 00 00 FF 1F 1E 
  1298)       912.3  Rx         027D  8  00 40 01 00 00 00 00 00 
  1299)       912.8  Rx         0162  8  2B 0F E6 0F E5 0F E5 0F 
  1300)       915.7  Rx         00B9  8  39 48 00 00 00 00 FF 32 
  1301)       916.0  Rx         0099  8  D5 18 00 00 00 20 00 20 
  1302)       918.3  Rx         010B  8  00 00 AF 0B 00 9E 3F 00 
  1303)       918.6  Rx         0076  8  0E 8A A0 87 DA 3E 00 00 
  1304)       918.8  Rx         04CA  8  00 00 D0 01 00 BA 01 00 
  1305)       919.0  Rx         00B0  8  08 5F BA 8E FE 7F E7 0F 
  1306)       919.3  Rx         00D3  8  13 00 D0 07 00 C0 00 00 
  1307)       919.5  Rx     18EF6303  8  0F 00 49 0D 65 0B 01 70 
  1308)       919.8  Rx     18EF6304  8  01 00 00 00 00 00 00 3E 
  1309)       920.1  Rx     18EF6305  8  03 00 00 00 00 00 00 0C 
  1310)       922.1  Rx         00B1  8  05 0B FF 00 00 FF 1F 1E 
  1311)       922.3  Rx         0170  8  FF FF 00 00 00 00 00 00 
  1312)       922.5  Rx         0371  8  6A 4D F2 09 3E 3D 3B 01 
  1313)       922.8  Rx         0162  8  2C E5 0F E5 0F E7 0F E7 
  1314)       923.1  Rx         00D1  8  30 FA DF FF DF 9E FF 64 
  1315)       925.7  Rx         00A1  8  38 A8 00 00 00 00 00 00 
  1316)       925.9  Rx         00A3  8  38 A8 00 00 00 00 00 00 
  1317)       926.5  Rx         009C  8  F9 2F 48 FF 03 14 00 00 
  1318)       928.4  Rx         013B  8  ED 04 00 00 00 E3 46 04 
  1319)       928.8  Rx         0085  8  26 0E 00 00 00 55 31 05 
  1320)       929.0  Rx         00A9  8  F8 0E 00 00 00 00 00 00 
  1321)       929.3  Rx         00AE  8  11 DF BE 03 00 00 68 00 
  1322)       929.5  Rx         0110  8  97 3E E6 05 80 78 00 80 
  1323)       929.7  Rx         0113  8  81 0A 00 7D 02 00 2F 01 
  1324)       930.0  Rx         02BB  8  44 FF 7F FF CF 20 FF 3D 
  1325)       930.2  Rx         007F  8  FF 3F FF 1F FF 3F FF 1F 
  1326)       932.0  Rx         00B1  8  D9 0C FF 00 00 FF 1F 1E 
  1327)       932.3  Rx         027D  8  00 40 01 00 00 00 00 00 
  1328)       932.8  Rx         0162  8  2D 0F E6 0F E5 0F E4 0F 
  1329)       933.2  Rx         046B  8  00 00 3C 50 50 B8 4C 10 
  1330)       935.8  Rx         00B9  8  CE 49 00 00 00 00 FF 32 
  1331)       936.0  Rx         0099  8  A3 19 00 00 00 20 00 20 
  1332)       937.0  Rx         026A  8  6F 01 DC E2 FE FE FF FF 
  1333)       937.3  Rx         02B8  8  FF FF FF FF FF 1F 00 00 
  1334)       938.2  Rx         0020  8  24 09 40 0C C0 00 00 00 
  1335)       938.5  Rx         010B  8  00 00 AF 0B 00 9E 3F 00 
  1336)       938.7  Rx         0076  8  0E 8A A0 87 DA 3E 00 00 
  1337)       939.0  Rx         00B0  8  08 5F BA 8E FE 7F E7 0F 
  1338)       939.2  Rx         01E4  8  00 00 00 00 00 00 00 00 
  1339)       939.5  Rx     18EF6303  8  10 27 01 EA 00 F0 03 08 
  1340)       939.8  Rx     18EF6304  8  02 00 00 49 49 49 E4 0C 
  1341)       940.0  Rx     18EF6305  8  04 03 00 03 00 03 00 00 
  1342)       942.1  Rx         00B1  8  F8 0D FF 00 00 FF 1F 1E 
  1343)       942.3  Rx         0173  8  00 00 00 00 00 00 F0 3F 
  1344)       942.5  Rx         0371  8  0E 4E F2 09 3E 3D 3B 01 
  1345)       942.8  Rx         0162  8  2E E6 0F E5 0F E6 0F E8 
  1346)       943.1  Rx         00D1  8  45 0B E0 00 E0 9E FF 64 
  1347)       945.1  Rx         02D2  8  FF 0F 40 00 00 00 00 00 
  1348)       945.7  Rx         00A1  8  3C A9 00 00 00 00 00 00 
  1349)       946.0  Rx         00A3  8  79 A9 00 00 00 00 00 00 
  1350)       946.5  Rx         009C  8  E3 20 48 FF 03 14 00 00 
  1351)       946.8  Rx         03F4  8  FF FF FF FF FF FF 03 00 
  1352)       948.7  Rx         0085  8  1A 0F 00 00 00 55 31 05 
  1353)       949.0  Rx         00A9  8  32 0F 00 00 00 00 00 00 
  1354)       949.2  Rx         00AE  8  03 D0 BE 03 00 00 68 00 
  1355)       949.5  Rx         0110  8  60 3F E6 05 80 78 00 80 
  1356)       949.7  Rx         0113  8  3C 0B 00 7D 02 00 2F 01 
  1357)       950.0  Rx         0151  8  60 FF FA 92 00 80 5C C7 
  1358)       950.3  Rx     0BA40000  8  20 00 00 00 00 00 00 00 
  1359)       950.5  Rx         045A  8  97 E3 E5 E8 02 46 15 CB 
  1360)       951.6  Rx         0138  8  00 00 44 45 FC 1F 00 00 
  1361)       952.1  Rx         00B1  8  7D 0E FF 00 00 FF 1F 1E 
  1362)       952.3  Rx         027D  8  00 40 01 00 00 00 00 00 
  1363)       952.8  Rx         0162  8  2F 0F E6 0F E7 0F E6 0F 
  1364)       955.0  Rx         02CB  8  00 00 3D 3C FF 2A 00 00 
  1365)       955.7  Rx         00B9  8  56 4A 00 00 00 00 FF 32 
  1366)       956.0  Rx         0099  8  39 1A 00 00 00 20 00 20 
  1367)       958.3  Rx         010B  8  00 00 AF 0B 00 9E 3F 00 
  1368)       958.5  Rx         0076  8  0E 8A A0 87 DA 3E 00 00 
  1369)       958.8  Rx         04CB  8  00 00 20 00 00 00 00 00 
  1370)       959.1  Rx         00B0  8  08 5F BA 8E FE 7F E7 0F 
  1371)       959.3  Rx     18EF6303  8  11 01 01 06 01 01 02 00 
  1372)       959.6  Rx     18EF6304  8  03 00 00 00 00 00 00 00 
  1373)       959.9  Rx     18EF6305  8  05 38 36 F1 0C 12 00 00 
  1374)       960.2  Rx     04880001  8  0A 5F 00 00 00 00 00 00 
  1375)       962.0  Rx         00B1  8  81 0F FF 00 00 FF 1F 1E 
  1376)       962.3  Rx         0371  8  8C 4F F2 09 3E 3D 3B 01 
  1377)       962.5  Rx         03CC  8  00 00 00 00 00 00 00 3D 
  1378)       962.8  Rx         0162  8  20 E7 0F E7 0F E7 0F E7 
  1379)       963.1  Rx         00D1  8  14 FC DF 00 E0 9E FF 64 
  1380)       965.7  Rx         00A1  8  4A AA 00 00 00 00 00 00 
  1381)       966.0  Rx         00A3  8  6E AA 00 00 00 00 00 00 
  1382)       966.5  Rx         009C  8  8D 21 48 FF 03 14 00 00 
  1383)       967.0  Rx         02D3  8  7A FF 47 0B 7E 00 40 EF 
  1384)       968.7  Rx         0085  8  90 00 00 00 00 55 31 05 
  1385)       969.0  Rx         00A9  8  EA 00 00 00 00 00 00 00 
  1386)       969.2  Rx         00AE  8  90 D1 BE 03 00 00 68 00 
  1387)       969.5  Rx         0110  8  A4 30 E6 05 80 78 00 80 
  1388)       969.7  Rx         0113  8  DA 0C 00 7D 02 00 2F 01 
  1389)       970.0  Rx         02FA  8  FF 00 78 00 80 E0 00 1C 
  1390)       970.2  Rx         043C  8  00 00 03 00 00 00 00 00 
  1391)       972.1  Rx         00B1  8  A3 00 FF 00 00 FF 1F 1E 
  1392)       972.3  Rx         027D  8  00 40 01 00 00 00 00 00 
  1393)       972.5  Rx         02CA  8  FF FF FF 03 00 00 00 00 
  1394)       972.8  Rx         0162  8  21 0F E7 0F E8 0F E8 0F 
  1395)       975.1  Rx         0493  8  23 00 21 00 DD 05 91 7E 
  1396)       975.7  Rx         00B9  8  A1 4B 00 00 00 00 FF 32 
  1397)       976.0  Rx         0099  8  4F 1B 00 00 00 20 00 20 
  1398)       978.2  Rx         0075  8  1A 03 00 00 00 00 00 00 
  1399)       978.5  Rx         010B  8  00 00 AF 0B 00 9E 3F 00 
  1400)       978.7  Rx         0076  8  0E 8A A0 87 DA 3E 00 00 
  1401)       978.9  Rx         00B0  8  08 5F BA 8E FE 7F E7 0F 
  1402)       979.2  Rx         013C  8  FF FF 00 01 EE 15 02 01 
  1403)       979.4  Rx         0425  8  00 FC 1E FE 1C 19 05 00 
  1404)       979.7  Rx     18EF6303  8  00 DA 00 D9 00 1A 01 7A 
  1405)       980.0  Rx     18EF6304  8  04 00 00 00 00 00 00 00 
  1406)       980.3  Rx     18EF6305  8  00 48 48 48 00 00 48 00 
  1407)       982.0  Rx         00B1  8  08 01 FF 00 00 FF 1F 1E 
  1408)       982.3  Rx         0371  8  AF 40 F2 09 3E 3D 3B 01 
  1409)       982.8  Rx         0162  8  22 E7 0F E8 0F E7 0F E7 
  1410)       983.1  Rx         00D1  8  6E 0D E0 00 E0 9E FF 64 
  1411)       985.0  Rx         01BD  8  FF FF FF 1F FF FF FF 1F 
  1412)       985.7  Rx         00A1  8  D1 AB 00 00 00 00 00 00 
  1413)       986.0  Rx         00A3  8  81 AB 00 00 00 00 00 00 
  1414)       986.5  Rx         009C  8  DC 22 48 FF 03 14 00 00 
  1415)       988.7  Rx         0085  8  4A 01 00 00 00 55 31 05 
  1416)       989.0  Rx         00A9  8  53 01 00 00 00 00 00 00 
  1417)       989.2  Rx         00AE  8  78 D2 BE 03 00 00 68 00 
  1418)       989.5  Rx         0110  8  B1 31 E6 05 80 78 00 80 
  1419)       989.7  Rx         0113  8  78 0D 00 7D 02 00 2F 01 
  1420)       989.9  Rx         042C  8  FF FF FF FF FF FF 00 FC 
  1421)       992.0  Rx         00B1  8  1F 02 FF 00 00 FF 1F 1E 
  1422)       992.3  Rx         027D  8  00 40 01 00 00 00 00 00 
  1423)       992.8  Rx         0162  8  23 0F E6 0F EA 0F EA 0F 
  1424)       995.1  Rx         02CC  8  85 37 0E 00 00 6E 49 00 
  1425)       995.7  Rx         00B9  8  C3 4C 00 00 00 00 FF 32 
  1426)       996.0  Rx         0099  8  22 1C 00 00 00 20 00 20 
  1427)       996.6  Rx         0134  8  02 84 30 55 F4 21 00 00 
  1428)       998.0  Rx         0233  8  02 FF 00 00 00 00 00 00 
  1429)       998.3  Rx         010B  8  00 00 AF 0B 00 9E 3F 00 
  1430)       998.6  Rx         0076  8  0E 8A A0 87 DA 3E 00 00 
  1431)       998.8  Rx         04CC  8  00 00 00 00 00 00 00 00 
  1432)       999.0  Rx         00B0  8  08 5F BA 8E FE 7F E7 0F 
  1433)       999.3  Rx     18EF6303  8  01 EA 00 00 00 D4 00 03 
  1434)       999.6  Rx     18EF6304  8  05 00 00 00 00 00 00 00 
  1435)       999.9  Rx     18EF6305  8  01 00 00 00 00 00 00 03 
  1436)      1001.5  Rx         0136  8  00 07 00 04 1C 00 00 00 
  1437)      1002.1  Rx         00B1  8  B4 03 FF 00 00 FF 1F 1E 
  1438)      1002.3  Rx         0371  8  CE 41 F2 09 3E 3D 3B 01 
  1439)      1002.8  Rx         0162  8  24 EA 0F EA 0F EA 0F E9 
  1440)      1003.1  Rx         00D1  8  D0 0E E0 FF DF 9E FF 64 
  1441)      1005.7  Rx         00A1  8  37 AC 00 00 00 00 00 00 
  1442)      1005.9  Rx         00A3  8  7F AC 00 00 00 00 00 00 
  1443)      1006.5  Rx         009C  8  C7 23 48 FF 03 14 00 00 
  1444)      1008.3  Rx         0312  8  00 A5 02 EF 00 69 EA 07 
  1445)      1008.8  Rx         0085  8  8C 02 00 00 00 55 31 05 
  1446)      1009.0  Rx         00A9  8  51 02 00 00 00 00 00 00 
  1447)      1009.2  Rx         00AE  8  53 D3 BE 03 00 00 68 00 
  1448)      1009.5  Rx         0110  8  D9 32 E6 05 80 78 00 80 
  1449)      1009.7  Rx         0113  8  B1 0E 00 7D 02 00 2F 01 
  1450)      1010.0  Rx         0483  8  00 6F 00 02 70 00 00 C8 
  1451)      1012.0  Rx         00B1  8  E2 04 FF 00 00 FF 1F 1E 
  1452)      1012.3  Rx         027D  8  00 40 01 00 00 00 00 00 
  1453)      1012.9  Rx         0162  8  25 0F EA 0F EA 0F EA 0F 
  1454)      1013.3  Rx         0309  8  C9 7A 06 7E 00 00 00 10 
  1455)      1015.8  Rx         00B9  8  63 4D 00 00 00 00 FF 32 
  1456)      1016.0  Rx         0099  8  27 1D 00 00 00 20 00 20 
  1457)      1018.3  Rx         010B  8  00 00 AF 0B 00 9E 3F 00 
  1458)      1018.6  Rx         0076  8  0E 8A A0 87 DA 3E 00 00 
  1459)      1018.8  Rx         00B0  8  08 5F BA 8E FE 7F E7 0F 
  1460)      1019.0  Rx         00D3  8  13 00 D0 07 00 C0 00 00 
  1461)      1019.3  Rx     18EF6303  8  02 F0 00 E4 00 E2 00 00 
  1462)      1019.6  Rx     18EF6304  8  06 00 00 00 00 00 00 54 
  1463)      1019.9  Rx     18EF6305  8  02 00 00 04 00 01 E8 4E 
  1464)      1020.1  Rx         0412  8  E9 62 29 0E 3B 8E 63 10 
  1465)      1022.1  Rx         00B1  8  AF 05 FF 00 00 FF 1F 1E 
  1466)      1022.3  Rx         0170  8  FF FF 00 00 00 00 00 00 
  1467)      1022.5  Rx         0371  8  84 42 F2 09 3E 3D 3B 01 
  1468)      1022.8  Rx         0162  8  26 EA 0F EA 0F E9 0F EA 
  1469)      1023.1  Rx         00D1  8  A7 0F E0 FF DF 9E FF 64 
  1470)      1025.7  Rx         00A1  8  1C AD 00 00 00 00 00 00 
  1471)      1026.0  Rx         00A3  8  46 AD 00 00 00 00 00 00 
  1472)      1026.5  Rx         009C  8  2E 24 48 FF 03 14 00 00 
  1473)      1027.0  Rx         0489  8  00 34 38 82 43 70 66 00 
  1474)      1028.4  Rx         013B  8  97 05 00 00 00 E3 46 04 
  1475)      1028.8  Rx         0085  8  0C 03 00 00 00 55 31 05 
  1476)      1029.0  Rx         00A9  8  0E 03 00 00 00 00 00 00 
  1477)      1029.2  Rx         00AE  8  DC D4 BE 03 00 00 68 00 
  1478)      1029.5  Rx         0110  8  70 33 E6 05 80 78 00 80 
  1479)      1029.7  Rx         0113  8  14 0F 00 7D 02 00 2F 01 
  1480)      1030.0  Rx         02BB  8  44 FF 7F FF CF 20 FF 3D 
  1481)      1030.2  Rx         007F  8  FF 3F FF 1F FF 3F FF 1F 
  1482)      1032.0  Rx         00B1  8  9B 06 FF 00 00 FF 1F 1E 
  1483)      1032.3  Rx         027D  8  00 40 01 00 00 00 00 00 
  1484)      1032.8  Rx         0162  8  27 0F EA 0F EA 0F EA 0F 
  1485)      1035.7  Rx         00B9  8  02 4E 00 00 00 00 FF 32 
  1486)      1036.0  Rx         0099  8  CE 1E 00 00 00 20 00 20 
  1487)      1037.0  Rx         02B8  8  FF FF FF FF FF 1F 00 00 
