;$FILEVERSION=1.1
;$STARTTIME=45854.8336374769
;
;   Start time: 16/07/2025 20:00:26.278.0
;   Generated by PCAN-View v5.3.2.952
;
;   Message Number
;   |         Time Offset (ms)
;   |         |        Type
;   |         |        |        ID (hex)
;   |         |        |        |     Data Length
;   |         |        |        |     |   Data Bytes (hex) ...
;   |         |        |        |     |   |
;---+--   ----+----  --+--  ----+---  +  -+ -- -- -- -- -- -- --
     1)         0.5  Rx         00B1  8  1F 02 FF 00 00 FF 1F 1E 
     2)         0.8  Rx         027D  8  00 40 01 00 00 00 00 00 
     3)         4.3  Rx         00B9  8  20 44 00 00 00 00 FF 32 
     4)         4.5  Rx         0099  8  05 14 00 00 00 20 00 20 
     5)         5.7  Rx         00D1  8  8B F6 DF 00 E0 9E FF 64 
     6)         8.2  Rx         02BB  8  43 FF 7F FF CF 20 FF 3D 
     7)         8.5  Rx         0113  8  4D 06 00 7D 02 00 2F 01 
     8)        10.5  Rx         00B1  8  B4 03 FF 00 00 FF 1F 1E 
     9)        10.8  Rx         0170  8  FF FF 00 00 00 00 00 00 
    10)        11.1  Rx         0371  8  2A 49 F2 09 3E 3D 3B 01 
    11)        12.2  Rx         013B  8  4B 00 00 00 00 E3 46 04 
    12)        12.4  Rx         010B  8  00 00 AF 0B 00 9E 3F 00 
    13)        12.6  Rx         0076  8  0E 7A A0 87 DA 3E 00 00 
    14)        12.9  Rx         00B0  8  08 5F BA 8E FE 7F E7 0F 
    15)        13.7  Rx         007F  8  FF 3F FF 1F FF 3F FF 1F 
    16)        14.3  Rx         00A1  8  73 A4 00 00 00 00 00 00 
    17)        14.5  Rx         00A3  8  3B A4 00 00 00 00 00 00 
    18)        16.6  Rx         009C  8  31 29 58 FF 03 14 00 00 
    19)        17.3  Rx         0085  8  02 0A 00 00 00 55 31 05 
    20)        17.5  Rx         009A  8  88 13 00 00 00 00 80 7E 
    21)        17.8  Rx         00A9  8  42 0A 00 00 00 00 00 00 
    22)        18.0  Rx         00AE  8  B8 DB BE 03 00 00 68 00 
    23)        18.3  Rx         0110  8  3A 3A E6 05 80 78 00 80 
    24)        18.5  Rx         02FC  8  CB 3E 00 00 00 00 00 00 
    25)        18.8  Rx     18EF6303  8  04 13 11 00 13 1D 20 00 
    26)        19.1  Rx     18EF6304  8  06 00 00 00 00 00 00 54 
    27)        19.3  Rx     18EF6305  8  04 03 00 03 00 03 00 00 
    28)        20.5  Rx         003F  8  94 77 00 00 01 00 FC 5F 
    29)        20.8  Rx         00B1  8  E2 04 FF 00 00 FF 1F 1E 
    30)        21.0  Rx         027D  8  00 40 01 00 00 00 00 00 
    31)        21.7  Rx         046B  8  00 00 3C 50 50 B8 4C 10 
    32)        24.2  Rx         00B9  8  CB 45 00 00 00 00 FF 32 
    33)        24.5  Rx         0099  8  E6 15 00 00 00 20 00 20 
    34)        25.5  Rx         026A  8  6F 01 DC E2 FE FE FF FF 
    35)        25.8  Rx         00D1  8  13 07 E0 00 E0 9E FF 64 
    36)        26.0  Rx         02B8  8  FF FF FF FF FF 1F 00 00 
    37)        26.8  Rx         0020  8  38 05 40 0C C0 00 00 00 
    38)        27.3  Rx         01E4  8  00 00 00 00 00 00 00 00 
    39)        27.4  Rx         02CE  2  3F 00 
    40)        27.7  Rx         044B  8  00 00 00 5E 1D 4C 07 04 
    41)        28.3  Rx         0113  8  44 07 00 7D 02 00 2F 01 
    42)        30.6  Rx         00B1  8  AF 05 FF 00 00 FF 1F 1E 
    43)        30.8  Rx         0173  8  00 00 00 00 00 00 F0 3F 
    44)        31.0  Rx         0371  8  60 4A F2 09 3E 3D 3B 01 
    45)        31.3  Rx         03EA  8  00 00 00 00 00 00 00 00 
    46)        32.0  Rx         010B  8  00 00 AF 0B 00 9E 3F 00 
    47)        32.2  Rx         0076  8  0E 7A A0 87 DA 3E 00 00 
    48)        32.5  Rx         00B0  8  08 5F BA 8E FE 7F E7 0F 
    49)        33.8  Rx     0BA40000  8  20 00 00 00 00 00 00 00 
    50)        34.1  Rx         045A  8  97 C3 E5 E8 02 46 15 CB 
    51)        34.3  Rx         00A1  8  E2 A5 00 00 00 00 00 00 
    52)        34.5  Rx         00A3  8  1C A5 00 00 00 00 00 00 
    53)        36.6  Rx         009C  8  9E 2A 58 FF 03 14 00 00 
    54)        37.3  Rx         0085  8  60 0B 00 00 00 55 31 05 
    55)        37.5  Rx         00A9  8  88 0B 00 00 00 00 00 00 
    56)        37.8  Rx         00AE  8  32 DC BE 03 00 00 68 00 
    57)        38.0  Rx         0110  8  9A 3B E6 05 80 78 00 80 
    58)        38.2  Rx         0151  8  60 FF FA 92 00 80 B7 C3 
    59)        38.5  Rx     12900000  8  00 FE 01 FF 7F 50 5A 00 
    60)        38.8  Rx     18EF6303  8  05 00 00 00 00 00 00 01 
    61)        39.0  Rx         02CB  8  00 00 3D 3C FF 30 00 00 
    62)        39.3  Rx     18EF6304  8  07 D8 05 90 16 DB 0C 00 
    63)        39.6  Rx     18EF6305  8  05 42 36 F0 0C 12 00 00 
    64)        40.5  Rx         00B1  8  9B 06 FF 00 00 FF 1F 1E 
    65)        40.8  Rx         027D  8  00 40 01 00 00 00 00 00 
    66)        40.9  Rx         03CA  2  FF FF 
    67)        41.6  Rx         0138  8  00 00 43 44 FC 1F 00 00 
    68)        43.7  Rx     04880001  8  0A 5F 00 00 00 00 00 00 
    69)        44.3  Rx         00B9  8  AA 46 00 00 00 00 FF 32 
    70)        44.5  Rx         0099  8  0F 16 00 00 00 20 00 20 
    71)        45.7  Rx         00D1  8  D9 08 E0 01 E0 9E FF 64 
    72)        48.3  Rx         0113  8  10 08 00 7D 02 00 2F 01 
    73)        50.6  Rx         00B1  8  35 07 FF 00 00 FF 1F 1E 
    74)        50.8  Rx         0371  8  FE 4B F2 09 3E 3D 3B 01 
    75)        51.0  Rx         03CC  8  00 00 00 00 00 00 00 3D 
    76)        51.9  Rx         010B  8  00 00 AF 0B 00 9E 3F 00 
    77)        52.2  Rx         0076  8  0F 8A A0 87 DA 3E 00 00 
    78)        52.4  Rx         00B0  8  08 5F BA 8E FE 7F E7 0F 
    79)        54.2  Rx         00A1  8  6C A6 00 00 00 00 00 00 
    80)        54.4  Rx         00A3  8  95 A6 00 00 00 00 00 00 
    81)        55.5  Rx         02D3  8  7B FF 47 0B 7E 00 40 CF 
    82)        56.6  Rx         009C  8  66 2B 58 FF 03 14 00 00 
    83)        57.3  Rx         0085  8  9A 0C 00 00 00 55 31 05 
    84)        57.6  Rx         00A9  8  46 0C 00 00 00 00 00 00 
    85)        57.8  Rx         00AE  8  6A DD BE 03 00 00 68 00 
    86)        58.0  Rx         0110  8  44 3C E6 05 80 78 00 80 
    87)        58.2  Rx         02FA  8  FF 00 78 00 80 E0 00 1C 
    88)        58.5  Rx         013C  8  FF FF 00 01 91 11 02 01 
    89)        58.8  Rx     18EF6303  8  06 BC 02 BC 02 00 00 00 
    90)        59.0  Rx         0493  8  23 00 21 00 DD 05 91 7E 
    91)        59.3  Rx     18EF6304  8  00 00 00 04 00 00 00 64 
    92)        59.6  Rx     18EF6305  8  00 48 48 48 00 00 48 00 
    93)        60.5  Rx         00B1  8  41 08 FF 00 00 FF 1F 1E 
    94)        60.8  Rx         027D  8  00 40 01 00 00 00 00 00 
    95)        61.1  Rx         02CA  8  FF FF FF 03 00 00 00 00 
    96)        64.3  Rx         00B9  8  0A 47 00 00 00 00 FF 32 
    97)        64.5  Rx         0099  8  0A 17 00 00 00 20 00 20 
    98)        65.7  Rx         00D1  8  3D 09 E0 01 E0 9E FF 64 
    99)        68.2  Rx         0113  8  4B 09 00 7D 02 00 2F 01 
   100)        68.7  Rx         01BD  8  FF FF FF 1F FF FF FF 1F 
   101)        70.5  Rx         00B1  8  0C 09 FF 00 00 FF 1F 1E 
   102)        70.8  Rx         0371  8  E8 4C F2 09 3E 3D 3B 01 
   103)        71.1  Rx     12880000  8  00 00 00 00 FE 03 00 00 
   104)        71.3  Rx     12B40000  8  E3 4F A7 C4 12 49 81 3E 
   105)        71.9  Rx         010B  8  00 00 AF 0B 00 9E 3F 00 
   106)        72.2  Rx         0076  8  0F 8A A0 87 DA 3E 00 00 
   107)        72.4  Rx         00B0  8  08 5F BA 8E FE 7F E7 0F 
   108)        74.2  Rx         00A1  8  A1 A7 00 00 00 00 00 00 
   109)        74.5  Rx         00A3  8  4A A7 00 00 00 00 00 00 
   110)        75.5  Rx         0450  8  00 00 20 08 03 B4 19 00 
   111)        76.6  Rx         009C  8  A9 2C 58 FF 03 14 00 00 
   112)        77.3  Rx         0085  8  3D 0D 00 00 00 55 31 05 
   113)        77.5  Rx         00A9  8  8C 0D 00 00 00 00 00 00 
   114)        77.8  Rx         00AE  8  17 DE BE 03 00 00 68 00 
   115)        78.0  Rx         0110  8  4A 3D E6 05 80 78 00 80 
   116)        78.3  Rx     0BD80000  8  08 00 00 C0 00 80 3F 3E 
   117)        78.6  Rx     18EF6303  8  07 00 00 00 AC 0D 80 0C 
   118)        78.8  Rx         02CC  8  85 37 0E 00 00 7A 49 00 
   119)        79.1  Rx     18EF6304  8  01 00 00 00 00 00 00 12 
   120)        79.4  Rx     18EF6305  8  01 00 00 00 00 00 00 2D 
   121)        80.6  Rx         00B1  8  38 0A FF 00 00 FF 1F 1E 
   122)        80.8  Rx         0233  8  02 FF 00 00 00 00 00 00 
   123)        81.0  Rx         027D  8  00 40 01 00 00 00 00 00 
   124)        81.3  Rx     12F00000  8  09 64 A1 00 02 02 00 00 
   125)        84.3  Rx         00B9  8  39 48 00 00 00 00 FF 32 
   126)        84.5  Rx         0099  8  D5 18 00 00 00 20 00 20 
   127)        85.7  Rx         00D1  8  FF 0A E0 00 E0 9E FF 64 
   128)        86.6  Rx         0134  8  02 84 30 55 F4 21 00 00 
   129)        88.4  Rx         0113  8  81 0A 00 7D 02 00 2F 01 
   130)        90.5  Rx         00B1  8  05 0B FF 00 00 FF 1F 1E 
   131)        90.8  Rx         0371  8  6A 4D F2 09 3E 3D 3B 01 
   132)        91.6  Rx         0136  8  00 07 00 04 1C 00 00 00 
   133)        92.0  Rx         010B  8  00 00 AF 0B 00 9E 3F 00 
   134)        92.2  Rx         0076  8  0F 8A A0 87 DA 3E 00 00 
   135)        92.4  Rx         00B0  8  08 5F BA 8E FE 7F E7 0F 
   136)        92.8  Rx         0162  8  11 40 0B 0F E7 7F FF 5A 
   137)        93.1  Rx         0160  8  30 40 05 AA AA AA AA AA 
   138)        94.2  Rx         00A1  8  38 A8 00 00 00 00 00 00 
   139)        94.5  Rx         00A3  8  38 A8 00 00 00 00 00 00 
   140)        95.5  Rx         0431  8  3E 1E FE FF EF E9 00 00 
   141)        96.5  Rx         0162  8  21 01 03 01 23 0F EB 01 
   142)        96.7  Rx         009C  8  76 2D 58 FF 03 14 00 00 
   143)        97.3  Rx         0085  8  26 0E 00 00 00 55 31 05 
   144)        97.5  Rx         00A9  8  F8 0E 00 00 00 00 00 00 
   145)        97.8  Rx         00AE  8  11 DF BE 03 00 00 68 00 
   146)        98.1  Rx         0110  8  97 3E E6 05 80 78 00 80 
   147)        98.4  Rx     18EF6303  8  08 00 00 00 00 64 64 64 
   148)        98.7  Rx         00D3  8  13 00 D0 07 00 C0 00 00 
   149)        98.9  Rx     18EF6304  8  02 00 00 49 49 49 E4 0C 
   150)        99.2  Rx     18EF6305  8  02 00 00 04 00 01 E8 4E 
   151)       100.5  Rx         00B1  8  D9 0C FF 00 00 FF 1F 1E 
   152)       100.8  Rx         027D  8  00 40 01 00 00 00 00 00 
   153)       101.1  Rx     0BD40000  8  04 00 00 C0 FF 01 00 80 
   154)       104.2  Rx         00B9  8  CE 49 00 00 00 00 FF 32 
   155)       104.5  Rx         0099  8  A3 19 00 00 00 20 00 20 
   156)       105.6  Rx         0443  8  20 00 00 00 22 00 0C 00 
   157)       105.8  Rx         00D1  8  45 0B E0 00 E0 9E FF 64 
   158)       106.5  Rx         0162  8  22 02 0F E4 01 18 47 01 
   159)       106.8  Rx     128C0000  8  FF FF 01 00 00 00 00 00 
   160)       108.3  Rx         02BB  8  43 FF 7F FF CF 20 FF 3D 
   161)       108.5  Rx         0113  8  3C 0B 00 7D 02 00 2F 01 
   162)       110.6  Rx         00B1  8  F8 0D FF 00 00 FF 1F 1E 
   163)       110.8  Rx         0170  8  FF FF 00 00 00 00 00 00 
   164)       111.1  Rx         0371  8  0E 4E F2 09 3E 3D 3B 01 
   165)       112.2  Rx         013B  8  8D 01 00 00 00 E3 46 04 
   166)       112.4  Rx         010B  8  00 00 AF 0B 00 9E 3F 00 
   167)       112.7  Rx         0076  8  0F 8A A0 87 DA 3E 00 00 
   168)       112.9  Rx         00B0  8  08 5F BA 8E FE 7F E7 0F 
   169)       113.6  Rx         007F  8  FF 3F FF 1F FF 3F FF 1F 
   170)       114.2  Rx         00A1  8  3C A9 00 00 00 00 00 00 
   171)       114.5  Rx         00A3  8  79 A9 00 00 00 00 00 00 
   172)       115.5  Rx         0489  8  00 14 38 82 43 56 66 00 
   173)       116.5  Rx         0162  8  23 06 46 24 BD 00 02 9A 
   174)       116.7  Rx         009C  8  70 2E 58 FF 03 14 00 00 
   175)       117.3  Rx         0085  8  1A 0F 00 00 00 55 31 05 
   176)       117.6  Rx         00A9  8  32 0F 00 00 00 00 00 00 
   177)       117.8  Rx         00AE  8  03 D0 BE 03 00 00 68 00 
   178)       118.0  Rx         0110  8  60 3F E6 05 80 78 00 80 
   179)       118.3  Rx         0448  8  75 00 00 3B 38 3D 3E 3B 
   180)       118.5  Rx     18EF6303  8  09 E3 29 01 88 13 00 00 
   181)       118.8  Rx         013D  8  EB 02 29 0E 3D 2E 63 10 
   182)       119.1  Rx     18EF6304  8  03 00 00 00 00 00 00 00 
   183)       119.3  Rx     18EF6305  8  03 00 00 00 00 00 00 0C 
   184)       120.5  Rx         00B1  8  7D 0E FF 00 00 FF 1F 1E 
   185)       120.8  Rx         0161  8  4B 48 00 00 00 00 FF 01 
   186)       121.0  Rx         027D  8  00 40 01 00 00 00 00 00 
   187)       124.3  Rx         00B9  8  56 4A 00 00 00 00 FF 32 
   188)       124.5  Rx         0099  8  39 1A 00 00 00 20 00 20 
   189)       125.5  Rx         02B8  8  FF FF FF FF FF 1F 00 00 
   190)       125.8  Rx         00D1  8  36 0C E0 00 E0 9E FF 64 
   191)       126.5  Rx         0162  8  24 00 00 00 00 00 00 00 
   192)       126.7  Rx         0020  8  FE 06 40 0C C0 00 00 00 
   193)       127.3  Rx         01E4  8  00 00 00 00 00 00 00 00 
   194)       128.3  Rx         0113  8  DA 0C 00 7D 02 00 2F 01 
   195)       128.7  Rx         03FD  8  4F 40 FF FF DD 68 60 00 
   196)       130.6  Rx         00B1  8  81 0F FF 00 00 FF 1F 1E 
   197)       130.8  Rx         0173  8  00 00 00 00 00 00 F0 3F 
   198)       131.0  Rx         0371  8  8C 4F F2 09 3E 3D 3B 01 
   199)       132.0  Rx         010B  8  00 00 AF 0B 00 9E 3F 00 
   200)       132.2  Rx         0076  8  0F 8A A0 87 DA 3E 00 00 
   201)       132.5  Rx         00B0  8  08 5F BA 8E FE 7F E7 0F 
   202)       133.8  Rx     0BA40000  8  20 00 00 00 00 00 00 00 
   203)       134.2  Rx         00A1  8  4A AA 00 00 00 00 00 00 
   204)       134.4  Rx         00A3  8  6E AA 00 00 00 00 00 00 
   205)       135.7  Rx         0302  8  0E 10 2C 01 00 00 00 00 
   206)       136.5  Rx         0162  8  25 01 1A 30 30 30 50 45 
   207)       136.7  Rx         009C  8  23 2F 58 FF 03 14 00 00 
   208)       137.3  Rx         0085  8  90 00 00 00 00 55 31 05 
   209)       137.6  Rx         00A9  8  EA 00 00 00 00 00 00 00 
   210)       137.8  Rx         00AE  8  90 D1 BE 03 00 00 68 00 
   211)       138.0  Rx         0110  8  A4 30 E6 05 80 78 00 80 
   212)       138.2  Rx         0151  8  60 FF FA 92 00 80 BC C4 
   213)       138.5  Rx         0199  8  9E A2 C8 FF F1 7F 00 80 
   214)       138.8  Rx     18EF6303  8  0A 80 0C 00 00 00 00 20 
   215)       139.0  Rx         02CB  8  00 00 3D 3C FF 30 00 00 
   216)       139.3  Rx     18EF6304  8  04 00 00 00 00 00 00 00 
   217)       139.6  Rx         03BE  8  E6 8F D2 5D 7C 01 5C 03 
   218)       139.8  Rx     18EF6305  8  04 03 00 03 00 03 00 00 
   219)       140.5  Rx         00B1  8  A3 00 FF 00 00 FF 1F 1E 
   220)       140.8  Rx         027D  8  00 40 01 00 00 00 00 00 
   221)       141.6  Rx         0138  8  00 00 43 44 FC 1F 00 00 
   222)       141.9  Rx         04C0  8  2E 05 00 FE EF FF 00 00 
   223)       143.7  Rx     04880001  8  0A 5F 00 00 00 00 00 00 
   224)       144.3  Rx         00B9  8  A1 4B 00 00 00 00 FF 32 
   225)       144.5  Rx         0099  8  4F 1B 00 00 00 20 00 20 
   226)       145.7  Rx         00D1  8  6E 0D E0 00 E0 9E FF 64 
   227)       146.5  Rx         0162  8  26 50 42 53 4B 49 33 37 
   228)       147.2  Rx         0041  8  FD 9F 00 00 30 04 80 FF 
   229)       148.3  Rx         0113  8  78 0D 00 7D 02 00 2F 01 
   230)       150.6  Rx         00B1  8  08 01 FF 00 00 FF 1F 1E 
   231)       150.8  Rx         0371  8  AF 40 F2 09 3E 3D 3B 01 
   232)       151.9  Rx         010B  8  00 00 AF 0B 00 9E 3F 00 
   233)       152.2  Rx         0076  8  0F 8A A0 87 DA 3E 00 00 
   234)       152.4  Rx         00B0  8  08 5F BA 8E FE 7F E7 0F 
   235)       154.2  Rx         00A1  8  D1 AB 00 00 00 00 00 00 
   236)       154.5  Rx         00A3  8  81 AB 00 00 00 00 00 00 
   237)       154.7  Rx         02F7  8  6E BE EF 76 35 18 3F C3 
   238)       155.5  Rx         02D3  8  7B FF 47 0B 7E 00 80 DF 
   239)       155.7  Rx         0068  1  02 
   240)       156.5  Rx         0162  8  27 41 48 36 43 32 30 30 
   241)       156.7  Rx         009C  8  39 20 58 FF 03 14 00 00 
   242)       157.3  Rx         0085  8  4A 01 00 00 00 55 31 05 
   243)       157.5  Rx         00A9  8  53 01 00 00 00 00 00 00 
   244)       157.8  Rx         00AE  8  78 D2 BE 03 00 00 68 00 
   245)       158.0  Rx         0110  8  B1 31 E6 05 80 78 00 80 
   246)       158.4  Rx     18EF6303  8  0B 00 00 00 00 00 00 06 
   247)       158.7  Rx         013C  8  FF FF 00 01 70 12 02 01 
   248)       158.9  Rx         0493  8  23 00 21 00 DD 05 91 7E 
   249)       159.2  Rx     18EF6304  8  05 00 00 00 00 00 00 00 
   250)       159.5  Rx     18EF6305  8  05 38 36 F0 0C 12 00 00 
   251)       160.6  Rx         00B1  8  1F 02 FF 00 00 FF 1F 1E 
   252)       160.8  Rx         027D  8  00 40 01 00 00 00 00 00 
   253)       161.1  Rx         02CA  8  FF FF FF 03 00 00 00 00 
   254)       164.2  Rx         00B9  8  C3 4C 00 00 00 00 FF 32 
   255)       164.5  Rx         0099  8  22 1C 00 00 00 20 00 20 
   256)       165.6  Rx         0489  8  00 14 38 82 43 57 66 00 
   257)       165.8  Rx         00D1  8  3D 0E E0 00 E0 9E FF 64 
   258)       166.5  Rx         0162  8  28 30 30 30 30 31 30 30 
   259)       168.2  Rx         0113  8  B1 0E 00 7D 02 00 2F 01 
   260)       168.7  Rx         01BD  8  FF FF FF 1F FF FF FF 1F 
   261)       170.5  Rx         00B1  8  B4 03 FF 00 00 FF 1F 1E 
   262)       170.8  Rx         0371  8  CE 41 F2 09 3E 3D 3B 01 
   263)       172.0  Rx         010B  8  00 00 AF 0B 00 9E 3F 00 
   264)       172.2  Rx         0076  8  0F 8A A0 87 DA 3E 00 00 
   265)       172.4  Rx         00B0  8  08 5F BA 8E FE 7F E7 0F 
   266)       174.2  Rx         00A1  8  37 AC 00 00 00 00 00 00 
   267)       174.5  Rx         00A3  8  7F AC 00 00 00 00 00 00 
   268)       176.5  Rx         0162  8  29 01 03 0F E7 7F FF 00 
   269)       176.7  Rx         009C  8  57 21 58 FF 03 14 00 00 
   270)       177.3  Rx         0085  8  8C 02 00 00 00 55 31 05 
   271)       177.5  Rx         00A9  8  51 02 00 00 00 00 00 00 
   272)       177.8  Rx         00AE  8  53 D3 BE 03 00 00 68 00 
   273)       178.0  Rx         0110  8  D9 32 E6 05 80 78 00 80 
   274)       178.3  Rx         02B4  8  7F BE BF 7F 00 FA FB 3F 
   275)       178.5  Rx         04BE  8  2C 01 1E 8E 01 00 00 00 
   276)       178.8  Rx     18EF6303  8  0C CD 2F D6 00 D5 00 06 
   277)       179.1  Rx     18EF6304  8  06 00 00 00 00 00 00 54 
   278)       179.4  Rx     18EF6305  8  00 48 48 48 00 00 48 00 
   279)       180.5  Rx         00B1  8  E2 04 FF 00 00 FF 1F 1E 
   280)       180.8  Rx         0233  8  02 FF 00 00 00 00 00 00 
   281)       181.0  Rx         027D  8  00 40 01 00 00 00 00 00 
   282)       184.2  Rx         00B9  8  63 4D 00 00 00 00 FF 32 
   283)       184.5  Rx         0099  8  27 1D 00 00 00 20 00 20 
   284)       185.7  Rx         00D1  8  4A 0F E0 00 E0 9E FF 64 
   285)       186.5  Rx         0162  8  2A 64 0F E7 0F E4 0F E6 
   286)       186.7  Rx         0134  8  02 84 30 55 F4 21 00 00 
   287)       187.0  Rx         0491  8  00 00 00 00 00 00 00 00 
   288)       187.3  Rx         03F2  8  FF 01 00 00 00 00 7A FF 
   289)       188.4  Rx         0113  8  14 0F 00 7D 02 00 2F 01 
   290)       190.6  Rx         00B1  8  AF 05 FF 00 00 FF 1F 1E 
   291)       190.8  Rx         0371  8  84 42 F2 09 3E 3D 3B 01 
   292)       191.6  Rx         0136  8  00 07 00 04 1C 00 00 00 
   293)       192.0  Rx         010B  8  00 00 AF 0B 00 9E 3F 00 
   294)       192.2  Rx         0076  8  0F 8A A0 87 DA 3E 00 00 
   295)       192.4  Rx         00B0  8  08 5F BA 8E FE 7F E7 0F 
   296)       194.2  Rx         00A1  8  1C AD 00 00 00 00 00 00 
   297)       194.5  Rx         00A3  8  46 AD 00 00 00 00 00 00 
   298)       196.5  Rx         0162  8  2B 0F E5 0F E5 0F E6 0F 
   299)       196.7  Rx         009C  8  06 22 58 FF 03 14 00 00 
   300)       197.3  Rx         0085  8  0C 03 00 00 00 55 31 05 
   301)       197.6  Rx         00A9  8  0E 03 00 00 00 00 00 00 
   302)       197.8  Rx         00AE  8  DC D4 BE 03 00 00 68 00 
   303)       198.0  Rx         0110  8  70 33 E6 05 80 78 00 80 
   304)       198.4  Rx     18EF6303  8  0D 00 00 40 1F AC 0D 00 
   305)       198.7  Rx         00D3  8  13 00 D0 07 00 C0 00 00 
   306)       199.0  Rx     18EF6304  8  07 D7 05 99 16 DA 0C 00 
   307)       199.3  Rx     18EF6305  8  01 00 00 00 00 00 00 07 
   308)       200.5  Rx         00B1  8  9B 06 FF 00 00 FF 1F 1E 
   309)       200.8  Rx         027D  8  00 40 01 00 00 00 00 00 
   310)       204.2  Rx         00B9  8  02 4E 00 00 00 00 FF 32 
   311)       204.5  Rx         0099  8  CE 1E 00 00 00 20 00 20 
   312)       205.7  Rx         00D1  8  09 00 E0 00 E0 9E FF 64 
   313)       206.5  Rx         0162  8  2C E6 0F E6 0F E7 0F E7 
   314)       208.3  Rx         02BB  8  43 FF 7F FF CF 20 FF 3D 
   315)       208.5  Rx         0113  8  84 00 00 7D 02 00 2F 01 
   316)       210.6  Rx         00B1  8  35 07 FF 00 00 FF 1F 1E 
   317)       210.8  Rx         0170  8  FF FF 00 00 00 00 00 00 
   318)       211.0  Rx         0371  8  76 43 F2 09 3E 3D 3B 01 
   319)       212.2  Rx         013B  8  A0 02 00 00 00 E3 46 04 
   320)       212.4  Rx         010B  8  00 00 AF 0B 00 9E 3F 00 
   321)       212.7  Rx         0076  8  0F 8A A0 87 DA 3E 00 00 
   322)       212.9  Rx         00B0  8  08 5F BA 8E FE 7F E7 0F 
   323)       213.7  Rx         007F  8  FF 3F FF 1F FF 3F FF 1F 
   324)       214.2  Rx         00A1  8  6B AE 00 00 00 00 00 00 
   325)       214.5  Rx         00A3  8  F4 AE 00 00 00 00 00 00 
   326)       216.5  Rx         0162  8  2D 0F E5 0F E5 0F E4 0F 
   327)       216.7  Rx         009C  8  1D 23 58 FF 03 14 00 00 
   328)       217.3  Rx         0085  8  FF 04 00 00 00 55 31 05 
   329)       217.6  Rx         00A9  8  B3 04 00 00 00 00 00 00 
   330)       217.8  Rx         00AE  8  40 D5 BE 03 00 00 68 00 
   331)       218.0  Rx         0110  8  09 34 E6 05 80 78 00 80 
   332)       218.5  Rx     18EF6303  8  0E 54 0D AC 0D 40 1F 00 
   333)       218.7  Rx     18EF6304  8  00 00 00 04 00 00 00 64 
   334)       219.0  Rx     18EF6305  8  02 00 00 04 00 01 E8 4E 
   335)       220.5  Rx         00B1  8  41 08 FF 00 00 FF 1F 1E 
   336)       220.8  Rx         027D  8  00 40 01 00 00 00 00 00 
   337)       221.7  Rx         046B  8  00 00 3C 50 50 B8 4C 10 
   338)       224.3  Rx         00B9  8  7F 4F 00 00 00 00 FF 32 
   339)       224.5  Rx         0099  8  A4 1F 00 00 00 20 00 20 
   340)       225.5  Rx         026A  8  6F 01 DC E2 FE FE FF FF 
   341)       225.8  Rx         00D1  8  0D 01 E0 00 E0 9E FF 64 
   342)       226.0  Rx         02B8  8  FF FF FF FF FF 1F 00 00 
   343)       226.5  Rx         0162  8  2E E6 0F E5 0F E6 0F E7 
   344)       226.7  Rx         0020  8  BF 07 40 0C C0 00 00 00 
   345)       227.3  Rx         01E4  8  00 00 00 00 00 00 00 00 
   346)       228.3  Rx         0113  8  63 01 00 7D 02 00 2F 01 
   347)       228.7  Rx         02D2  8  FF 0F 40 00 00 00 00 00 
   348)       230.5  Rx         00B1  8  0C 09 FF 00 00 FF 1F 1E 
   349)       230.8  Rx         0173  8  00 00 00 00 00 00 F0 3F 
   350)       231.0  Rx         0371  8  83 44 F2 09 3E 3D 3B 01 
   351)       232.0  Rx         010B  8  00 00 AF 0B 00 9E 3F 00 
   352)       232.2  Rx         0076  8  0E 7A A0 87 DA 3E 00 00 
   353)       232.5  Rx         00B0  8  08 5F BA 8E FE 7F E7 0F 
   354)       233.7  Rx     0BA40000  8  20 00 00 00 00 00 00 00 
   355)       234.0  Rx         045A  8  97 C3 E5 E8 02 46 15 CB 
   356)       234.2  Rx         00A1  8  89 AF 00 00 00 00 00 00 
   357)       234.5  Rx         00A3  8  7D AF 00 00 00 00 00 00 
   358)       236.5  Rx         0162  8  2F 0F E7 0F E7 0F E8 0F 
   359)       236.7  Rx         009C  8  F4 24 58 FF 03 14 00 00 
   360)       237.0  Rx         03F4  8  FF FF FF FF FF FF 03 00 
   361)       237.3  Rx         0085  8  B3 05 00 00 00 55 31 05 
   362)       237.6  Rx         00A9  8  0A 05 00 00 00 00 00 00 
   363)       237.8  Rx         00AE  8  FD D6 BE 03 00 00 68 00 
   364)       238.0  Rx         0110  8  1C 35 E6 05 80 78 00 80 
   365)       238.3  Rx         0151  8  60 FF FA 92 00 80 10 C5 
   366)       238.6  Rx     18EF6303  8  0F 00 24 0D 65 0B 01 70 
   367)       238.8  Rx         02CB  8  00 00 3D 3C FF 2E 00 00 
   368)       239.1  Rx     18EF6304  8  01 00 00 00 00 00 00 14 
   369)       239.4  Rx     18EF6305  8  03 00 00 00 00 00 00 0C 
   370)       240.5  Rx         00B1  8  38 0A FF 00 00 FF 1F 1E 
   371)       240.8  Rx         027D  8  00 40 01 00 00 00 00 00 
   372)       241.6  Rx         0138  8  00 00 43 44 FC 1F 00 00 
   373)       243.7  Rx     04880001  8  0A 5F 00 00 00 00 00 00 
   374)       244.3  Rx         00B9  8  8D 40 00 00 00 00 FF 32 
   375)       244.5  Rx         0099  8  EA 10 00 00 00 20 00 20 
   376)       245.7  Rx         00D1  8  9D 02 E0 00 E0 9E FF 64 
   377)       246.5  Rx         0162  8  20 E7 0F E8 0F E7 0F E6 
   378)       248.3  Rx         0113  8  86 02 00 7D 02 00 2F 01 
   379)       250.5  Rx         00B1  8  05 0B FF 00 00 FF 1F 1E 
   380)       250.8  Rx         0371  8  E2 45 F2 09 3E 3D 3B 01 
   381)       251.1  Rx         03CC  8  00 00 00 00 00 00 00 3D 
   382)       251.9  Rx         010B  8  00 00 AF 0B 00 9E 3F 00 
   383)       252.2  Rx         0076  8  0E 7A A0 87 DA 3E 00 00 
   384)       252.4  Rx         00B0  8  08 5F BA 8E FE 7F E7 0F 
   385)       254.2  Rx         00A1  8  E7 A0 00 00 00 00 00 00 
   386)       254.5  Rx         00A3  8  77 A0 00 00 00 00 00 00 
   387)       255.5  Rx         02D3  8  7B FF 47 0B 7E 00 40 EF 
   388)       256.5  Rx         0162  8  21 0F E8 0F E7 0F E7 0F 
   389)       256.7  Rx         009C  8  B0 25 58 FF 03 14 00 00 
   390)       257.3  Rx         0085  8  1D 06 00 00 00 55 31 05 
   391)       257.5  Rx         00A9  8  4A 06 00 00 00 00 00 00 
   392)       257.8  Rx         00AE  8  E6 D7 BE 03 00 00 68 00 
   393)       258.1  Rx         0110  8  23 36 E6 05 80 78 00 80 
   394)       258.3  Rx         02FA  8  FF 00 78 00 80 E0 00 1C 
   395)       258.5  Rx         013C  8  FF FF 00 01 C9 13 02 01 
   396)       258.8  Rx         043C  8  00 00 03 00 00 00 00 00 
   397)       259.0  Rx         0493  8  23 00 21 00 DD 05 91 7E 
   398)       259.3  Rx     18EF6303  8  10 27 01 E8 00 74 03 08 
   399)       259.5  Rx     18EF6304  8  02 00 00 49 49 49 E4 0C 
   400)       259.8  Rx     18EF6305  8  04 03 00 03 00 03 00 00 
   401)       260.6  Rx         00B1  8  D9 0C FF 00 00 FF 1F 1E 
   402)       260.8  Rx         027D  8  00 40 01 00 00 00 00 00 
   403)       261.0  Rx         02CA  8  FF FF FF 03 00 00 00 00 
   404)       264.2  Rx         00B9  8  DD 41 00 00 00 00 FF 32 
   405)       264.5  Rx         0099  8  EF 11 00 00 00 20 00 20 
   406)       265.7  Rx         00D1  8  5D F3 DF 00 E0 9E FF 64 
   407)       266.5  Rx         0162  8  22 E7 0F E7 0F E8 0F E6 
   408)       266.8  Rx         0075  8  C2 0E 00 00 00 00 00 00 
   409)       267.3  Rx         0425  8  00 FC 1E FE 1C 19 05 00 
   410)       268.2  Rx         0113  8  87 03 00 7D 02 00 2F 01 
   411)       268.7  Rx         01BD  8  FF FF FF 1F FF FF FF 1F 
   412)       270.6  Rx         00B1  8  F8 0D FF 00 00 FF 1F 1E 
   413)       270.8  Rx         0371  8  A8 46 F2 09 3E 3D 3B 01 
   414)       272.0  Rx         010B  8  00 00 AF 0B 00 9E 3F 00 
   415)       272.2  Rx         0076  8  0E 7A A0 87 DA 3E 00 00 
   416)       272.4  Rx         00B0  8  08 5F BA 8E FE 7F E7 0F 
   417)       274.2  Rx         00A1  8  BA A1 00 00 00 00 00 00 
   418)       274.5  Rx         00A3  8  4E A1 00 00 00 00 00 00 
   419)       276.5  Rx         0162  8  23 0F E7 0F EA 0F E9 0F 
   420)       276.7  Rx         009C  8  BE 26 58 FF 03 14 00 00 
   421)       277.3  Rx         0085  8  28 07 00 00 00 55 31 05 
   422)       277.5  Rx         00A9  8  80 07 00 00 00 00 00 00 
   423)       277.8  Rx         00AE  8  98 D8 BE 03 00 00 68 00 
   424)       278.0  Rx         0110  8  DD 37 E6 05 80 78 00 80 
   425)       278.3  Rx         042C  8  FF FF FF FF FF FF 00 FC 
   426)       278.6  Rx     18EF6303  8  11 01 01 06 01 01 02 00 
   427)       278.8  Rx         02CC  8  85 37 0E 00 00 7A 49 00 
   428)       279.1  Rx     18EF6304  8  03 00 00 00 00 00 00 00 
   429)       279.4  Rx     18EF6305  8  05 38 36 F0 0C 12 00 00 
   430)       280.5  Rx         00B1  8  7D 0E FF 00 00 FF 1F 1E 
   431)       280.8  Rx         0233  8  02 FF 00 00 00 00 00 00 
   432)       281.0  Rx         027D  8  00 40 01 00 00 00 00 00 
   433)       284.2  Rx         00B9  8  E2 42 00 00 00 00 FF 32 
   434)       284.5  Rx         0099  8  F8 12 00 00 00 20 00 20 
   435)       285.7  Rx         00D1  8  D5 04 E0 FF DF 9E FF 64 
   436)       286.5  Rx         0162  8  24 EB 0F E9 0F EA 0F EA 
   437)       286.7  Rx         0134  8  06 84 30 55 F4 21 00 00 
   438)       288.4  Rx         0113  8  AC 04 00 7D 02 00 2F 01 
   439)       290.6  Rx         00B1  8  81 0F FF 00 00 FF 1F 1E 
   440)       290.8  Rx     0BE00000  8  3A 01 FE 3F 08 00 00 00 
   441)       291.1  Rx         0371  8  EF 47 F2 09 3E 3D 3B 01 
   442)       291.6  Rx         0136  8  00 07 00 04 1C 00 00 00 
   443)       292.0  Rx         010B  8  00 00 AF 0B 00 9E 3F 00 
   444)       292.2  Rx         0076  8  0E 7A A0 87 DA 3E 00 00 
   445)       292.4  Rx         0312  8  00 A5 02 EF 00 69 EA 07 
   446)       292.7  Rx         00B0  8  08 5F BA 8E FE 7F E7 0F 
   447)       294.2  Rx         00A1  8  90 A2 00 00 00 00 00 00 
   448)       294.5  Rx         00A3  8  D2 A2 00 00 00 00 00 00 
   449)       296.5  Rx         0162  8  25 0F E9 0F EA 0F EA 0F 
   450)       296.7  Rx         009C  8  6C 27 58 FF 03 14 00 00 
   451)       297.3  Rx         0085  8  D4 08 00 00 00 55 31 05 
   452)       297.6  Rx         00A9  8  1F 08 00 00 00 00 00 00 
   453)       297.8  Rx         00AE  8  CB D9 BE 03 00 00 68 00 
   454)       298.0  Rx         0110  8  0C 38 E6 05 80 78 00 80 
   455)       298.2  Rx         0483  8  00 6F 00 02 70 00 00 C8 
   456)       298.5  Rx         00D3  8  13 00 D0 07 00 C0 00 00 
   457)       298.8  Rx     18EF6303  8  00 D9 00 D8 00 14 01 7A 
   458)       299.1  Rx     18EF6304  8  04 00 00 00 00 00 00 00 
   459)       299.4  Rx     18EF6305  8  00 48 48 48 00 00 47 00 
   460)       300.5  Rx         00B1  8  A3 00 FF 00 00 FF 1F 1E 
   461)       300.8  Rx         027D  8  00 40 01 00 00 00 00 00 
   462)       301.8  Rx         0309  8  C9 7A 06 7E 00 00 00 10 
   463)       303.9  Rx         0412  8  E9 62 29 0E 3B 8E 63 10 
   464)       304.3  Rx         00B9  8  F7 43 00 00 00 00 FF 32 
   465)       304.5  Rx         0099  8  8E 13 00 00 00 20 00 20 
   466)       305.8  Rx         00D1  8  E7 05 E0 FF DF 9E FF 64 
   467)       306.5  Rx         0162  8  26 E9 0F EA 0F EA 0F E9 
   468)       308.3  Rx         02BB  8  43 FF 7F FF CF 20 FF 3D 
   469)       308.5  Rx         0113  8  F7 05 00 7D 02 00 2F 01 
   470)       310.6  Rx         00B1  8  08 01 FF 00 00 FF 1F 1E 
   471)       310.8  Rx         0170  8  FF FF 00 00 00 00 00 00 
   472)       311.0  Rx         0371  8  4B 48 F2 09 3E 3D 3B 01 
   473)       312.2  Rx         013B  8  38 03 00 00 00 E3 46 04 
   474)       312.5  Rx         010B  8  00 00 AF 0B 00 9E 3F 00 
   475)       312.7  Rx         0076  8  0E 8A A0 87 DA 3E 00 00 
   476)       313.0  Rx         00B0  8  08 5F BA 8E FE 7F E7 0F 
   477)       313.6  Rx         007F  8  FF 3F FF 1F FF 3F FF 1F 
   478)       314.2  Rx         00A1  8  2F A3 00 00 00 00 00 00 
   479)       314.5  Rx         00A3  8  75 A3 00 00 00 00 00 00 
   480)       315.5  Rx         0489  8  00 14 38 82 43 57 66 00 
   481)       316.5  Rx         0162  8  27 0F EA 0F EB 0F E9 0F 
   482)       316.7  Rx         009C  8  1C 28 58 FF 03 14 00 00 
   483)       317.3  Rx         0085  8  AC 09 00 00 00 55 31 05 
   484)       317.5  Rx         00A9  8  D5 09 00 00 00 00 00 00 
   485)       317.8  Rx         00AE  8  05 DA BE 03 00 00 68 00 
   486)       318.0  Rx         0110  8  E7 39 E6 05 80 78 00 80 
   487)       318.5  Rx     18EF6303  8  01 E8 00 00 00 DE 00 03 
   488)       318.8  Rx     18EF6304  8  05 00 00 00 00 00 00 00 
   489)       319.1  Rx     18EF6305  8  01 00 00 00 00 00 00 13 
   490)       320.5  Rx         00B1  8  1F 02 FF 00 00 FF 1F 1E 
   491)       320.8  Rx         0161  8  4B 48 00 00 00 00 FF 01 
   492)       321.0  Rx         027D  8  00 40 01 00 00 00 00 00 
   493)       321.3  Rx     0BE40000  8  A4 01 FE 3F 00 00 00 00 
   494)       324.3  Rx         00B9  8  20 44 00 00 00 00 FF 32 
   495)       324.5  Rx         0099  8  05 14 00 00 00 20 00 20 
   496)       325.5  Rx         02B8  8  FF FF FF FF FF 1F 00 00 
   497)       325.8  Rx         00D1  8  8B F6 DF 00 E0 9E FF 64 
   498)       326.5  Rx         0162  8  28 E7 0F E7 0F E6 0F E7 
   499)       326.7  Rx         0020  8  09 08 40 0C C0 00 00 00 
   500)       327.3  Rx         01E4  8  00 00 00 00 00 00 00 00 
   501)       328.3  Rx         0113  8  4D 06 00 7D 02 00 2F 01 
   502)       330.5  Rx         00B1  8  B4 03 FF 00 00 FF 1F 1E 
   503)       330.8  Rx         0173  8  00 00 00 00 00 00 F0 3F 
   504)       331.1  Rx         0371  8  2A 49 F2 09 3E 3D 3B 01 
   505)       332.0  Rx         010B  8  00 00 AF 0B 00 9E 3F 00 
   506)       332.2  Rx         0076  8  0F 7A A0 87 DA 3E 00 00 
   507)       332.5  Rx         00B0  8  08 5F BA 8E FE 7F E7 0F 
   508)       333.8  Rx     0BA40000  8  20 00 00 00 00 00 00 00 
   509)       334.2  Rx         00A1  8  73 A4 00 00 00 00 00 00 
   510)       334.5  Rx         00A3  8  3B A4 00 00 00 00 00 00 
   511)       336.5  Rx         0162  8  29 0F E7 0F E6 0F E8 0F 
   512)       336.7  Rx         009C  8  31 29 58 FF 03 14 00 00 
   513)       337.3  Rx         0085  8  02 0A 00 00 00 55 31 05 
   514)       337.5  Rx         00A9  8  42 0A 00 00 00 00 00 00 
   515)       337.8  Rx         00AE  8  B8 DB BE 03 00 00 68 00 
   516)       338.0  Rx         0110  8  3A 3A E6 05 80 78 00 80 
   517)       338.3  Rx         0151  8  60 FF FA 92 00 80 CB C6 
   518)       338.5  Rx     18EF6303  8  02 ED 00 E2 00 E0 00 00 
   519)       338.8  Rx         02CB  8  00 00 3D 3C FF 2E 00 00 
   520)       339.1  Rx     18EF6304  8  06 00 00 00 00 00 00 54 
   521)       339.3  Rx         02DA  8  FF 3F 64 04 50 03 B4 19 
   522)       339.6  Rx     18EF6305  8  02 00 00 04 00 01 E8 4E 
   523)       340.5  Rx         00B1  8  E2 04 FF 00 00 FF 1F 1E 
   524)       340.8  Rx         027D  8  00 40 01 00 00 00 00 00 
   525)       341.6  Rx         0138  8  00 00 43 44 FC 1F 00 00 
   526)       343.7  Rx     04880001  8  0A 5F 00 00 00 00 00 00 
   527)       344.2  Rx         00B9  8  CB 45 00 00 00 00 FF 32 
   528)       344.5  Rx         0099  8  E6 15 00 00 00 20 00 20 
   529)       345.7  Rx         00D1  8  13 07 E0 00 E0 9E FF 64 
   530)       346.5  Rx         0162  8  2A E7 0F E6 0F E8 0F E6 
   531)       348.3  Rx         0113  8  44 07 00 7D 02 00 2F 01 
   532)       350.6  Rx         00B1  8  AF 05 FF 00 00 FF 1F 1E 
   533)       350.8  Rx         0371  8  60 4A F2 09 3E 3D 3B 01 
   534)       352.0  Rx         010B  8  00 00 AF 0B 00 9E 3F 00 
   535)       352.2  Rx         0076  8  0E 8A A0 87 DA 3E 00 00 
   536)       352.4  Rx         00B0  8  08 5F BA 8E FE 7F E7 0F 
   537)       354.2  Rx         00A1  8  E2 A5 00 00 00 00 00 00 
   538)       354.5  Rx         00A3  8  1C A5 00 00 00 00 00 00 
   539)       355.5  Rx         02D3  8  7B FF 47 0B 7E 00 80 DF 
   540)       355.8  Rx         0068  1  02 
   541)       356.5  Rx         0162  8  2B 0F E8 0F E8 0F E8 0F 
   542)       356.7  Rx         009C  8  9E 2A 58 FF 03 14 00 00 
   543)       357.3  Rx         0085  8  60 0B 00 00 00 55 31 05 
   544)       357.5  Rx         00A9  8  88 0B 00 00 00 00 00 00 
   545)       357.8  Rx         00AE  8  32 DC BE 03 00 00 68 00 
   546)       358.0  Rx         0110  8  9A 3B E6 05 80 78 00 80 
   547)       358.4  Rx     18EF6303  8  03 00 00 40 1F 01 02 58 
   548)       358.7  Rx         013C  8  FF FF 00 01 4E 14 02 01 
   549)       358.9  Rx         041A  8  55 01 00 00 00 03 FF 6B 
   550)       359.2  Rx         0493  8  23 00 21 00 DD 05 91 7E 
   551)       359.4  Rx     18EF6304  8  07 D6 05 99 16 DE 0C 00 
   552)       359.7  Rx     18EF6305  8  03 00 00 00 00 00 00 0C 
   553)       360.5  Rx         00B1  8  9B 06 FF 00 00 FF 1F 1E 
   554)       360.8  Rx         027D  8  00 40 01 00 00 00 00 00 
   555)       361.0  Rx         02CA  8  FF FF FF 03 00 00 00 00 
   556)       364.2  Rx         00B9  8  AA 46 00 00 00 00 FF 32 
   557)       364.5  Rx         0099  8  0F 16 00 00 00 20 00 20 
   558)       365.7  Rx         00D1  8  60 08 E0 FF DF 9E FF 64 
   559)       366.5  Rx         0162  8  2C E9 0F E8 0F E8 0F E8 
   560)       368.3  Rx         0113  8  10 08 00 7D 02 00 2F 01 
   561)       368.7  Rx         01BD  8  FF FF FF 1F FF FF FF 1F 
   562)       370.6  Rx         00B1  8  35 07 FF 00 00 FF 1F 1E 
   563)       370.8  Rx         0371  8  FE 4B F2 09 3E 3D 3B 01 
   564)       372.0  Rx         010B  8  00 00 AF 0B 00 9E 3F 00 
   565)       372.2  Rx         0076  8  0E 8A A0 87 DA 3E 00 00 
   566)       372.4  Rx         00B0  8  08 5F BA 8E FE 7F E7 0F 
   567)       372.7  Rx     12940000  8  8A CE FF FF 3F 00 C8 00 
   568)       374.2  Rx         00A1  8  6C A6 00 00 00 00 00 00 
   569)       374.4  Rx         00A3  8  95 A6 00 00 00 00 00 00 
   570)       376.5  Rx         0162  8  2D 0F E9 0F E9 0F E9 0F 
   571)       376.7  Rx         009C  8  66 2B 58 FF 03 14 00 00 
   572)       377.3  Rx         0085  8  9A 0C 00 00 00 55 31 05 
   573)       377.6  Rx         00A9  8  46 0C 00 00 00 00 00 00 
   574)       377.8  Rx         00AE  8  6A DD BE 03 00 00 68 00 
   575)       378.0  Rx         0110  8  44 3C E6 05 80 78 00 80 
   576)       378.5  Rx     18EF6303  8  04 13 11 00 13 1D 20 00 
   577)       378.8  Rx     18EF6304  8  00 00 00 04 00 00 00 64 
   578)       379.1  Rx     18EF6305  8  04 03 00 03 00 03 00 00 
   579)       380.5  Rx         00B1  8  41 08 FF 00 00 FF 1F 1E 
   580)       380.8  Rx         0233  8  02 FF 00 00 00 00 00 00 
   581)       381.0  Rx         027D  8  00 40 01 00 00 00 00 00 
   582)       383.7  Rx         03C8  8  FF FF FF FF FF FF FF 8F 
   583)       384.3  Rx         00B9  8  0A 47 00 00 00 00 FF 32 
   584)       384.5  Rx         0099  8  0A 17 00 00 00 20 00 20 
   585)       385.7  Rx         00D1  8  84 09 E0 FF DF 9E FF 64 
   586)       386.5  Rx         0162  8  2E E9 0F E9 0F E9 0F E9 
   587)       386.7  Rx         0134  8  02 84 30 55 F4 21 00 00 
   588)       387.3  Rx         03F2  8  FF 01 00 00 00 00 7A FF 
   589)       388.4  Rx         0113  8  4B 09 00 7D 02 00 2F 01 
   590)       390.5  Rx         00B1  8  0C 09 FF 00 00 FF 1F 1E 
   591)       390.8  Rx         0371  8  E8 4C F2 09 3E 3D 3B 01 
   592)       391.6  Rx         0136  8  00 07 00 04 1C 00 00 00 
   593)       391.9  Rx         010B  8  00 00 AF 0B 00 9E 3F 00 
   594)       392.2  Rx         0076  8  0F 7A A0 87 DA 3E 00 00 
   595)       392.4  Rx         00B0  8  08 5F BA 8E FE 7F E7 0F 
   596)       394.2  Rx         00A1  8  A1 A7 00 00 00 00 00 00 
   597)       394.5  Rx         00A3  8  4A A7 00 00 00 00 00 00 
   598)       396.5  Rx         0162  8  2F 0F E8 0F E8 0F E7 0F 
   599)       396.7  Rx         009C  8  A9 2C 58 FF 03 14 00 00 
   600)       397.3  Rx         0085  8  3D 0D 00 00 00 55 31 05 
   601)       397.5  Rx         00A9  8  8C 0D 00 00 00 00 00 00 
   602)       397.8  Rx         00AE  8  17 DE BE 03 00 00 68 00 
   603)       398.0  Rx         0110  8  4A 3D E6 05 80 78 00 80 
   604)       398.5  Rx     18EF6303  8  05 00 00 00 00 00 00 01 
   605)       398.7  Rx         00D3  8  13 00 D0 07 00 C0 00 00 
   606)       399.0  Rx     18EF6304  8  01 00 00 00 00 00 00 16 
   607)       399.3  Rx     18EF6305  8  05 38 36 F1 0C 12 00 00 
   608)       400.5  Rx         00B1  8  38 0A FF 00 00 FF 1F 1E 
   609)       400.8  Rx         027D  8  00 40 01 00 00 00 00 00 
   610)       404.2  Rx         00B9  8  39 48 00 00 00 00 FF 32 
   611)       404.5  Rx         0099  8  D5 18 00 00 00 20 00 20 
   612)       405.7  Rx         00D1  8  FF 0A E0 00 E0 9E FF 64 
   613)       406.5  Rx         0162  8  20 E7 0F E7 0F E8 0F E8 
   614)       408.2  Rx         02BB  8  43 FF 7F FF CF 20 FF 3D 
   615)       408.5  Rx         0113  8  81 0A 00 7D 02 00 2F 01 
   616)       410.5  Rx         00B1  8  05 0B FF 00 00 FF 1F 1E 
   617)       410.8  Rx         0170  8  FF FF 00 00 00 00 00 00 
   618)       411.1  Rx         0371  8  6A 4D F2 09 3E 3D 3B 01 
   619)       412.2  Rx         013B  8  ED 04 00 00 00 E3 46 04 
   620)       412.4  Rx         010B  8  00 00 AF 0B 00 9E 3F 00 
   621)       412.7  Rx         0076  8  0F 7A A0 87 DA 3E 00 00 
   622)       412.9  Rx         00B0  8  08 5F BA 8E FE 7F E7 0F 
   623)       413.7  Rx         007F  8  FF 3F FF 1F FF 3F FF 1F 
   624)       414.3  Rx         00A1  8  38 A8 00 00 00 00 00 00 
   625)       414.5  Rx         00A3  8  38 A8 00 00 00 00 00 00 
   626)       416.5  Rx         0162  8  21 0F E7 0F E7 0F E8 0F 
   627)       416.7  Rx         009C  8  76 2D 58 FF 03 14 00 00 
   628)       417.3  Rx         0085  8  26 0E 00 00 00 55 31 05 
   629)       417.5  Rx         00A9  8  F8 0E 00 00 00 00 00 00 
   630)       417.8  Rx         00AE  8  11 DF BE 03 00 00 68 00 
   631)       418.0  Rx         0110  8  97 3E E6 05 80 78 00 80 
   632)       418.5  Rx     18EF6303  8  06 BC 02 BC 02 00 00 00 
   633)       418.7  Rx     18EF6304  8  02 00 00 49 49 49 E4 0C 
   634)       419.0  Rx     18EF6305  8  00 48 48 48 00 00 48 00 
   635)       420.5  Rx         00B1  8  D9 0C FF 00 00 FF 1F 1E 
   636)       420.8  Rx         027D  8  00 40 01 00 00 00 00 00 
   637)       421.7  Rx         046B  8  00 00 3C 50 50 B8 4C 10 
   638)       424.2  Rx         00B9  8  CE 49 00 00 00 00 FF 32 
   639)       424.5  Rx         0099  8  A3 19 00 00 00 20 00 20 
   640)       425.5  Rx         026A  8  6F 01 DC E2 FE FE FF FF 
   641)       425.8  Rx         00D1  8  45 0B E0 00 E0 9E FF 64 
   642)       426.0  Rx         02B8  8  FF FF FF FF FF 1F 00 00 
   643)       426.5  Rx         0162  8  22 E8 0F E8 0F E7 0F E7 
   644)       426.8  Rx         0020  8  24 09 40 0C C0 00 00 00 
   645)       427.3  Rx         01E4  8  00 00 00 00 00 00 00 00 
   646)       428.3  Rx         0113  8  3C 0B 00 7D 02 00 2F 01 
   647)       430.5  Rx         00B1  8  F8 0D FF 00 00 FF 1F 1E 
   648)       430.8  Rx         0173  8  00 00 00 00 00 00 F0 3F 
   649)       431.0  Rx         0371  8  0E 4E F2 09 3E 3D 3B 01 
   650)       432.0  Rx         010B  8  00 00 AF 0B 00 9E 3F 00 
   651)       432.3  Rx         0076  8  0E 7A A0 87 DA 3E 00 00 
   652)       432.5  Rx         00B0  8  08 5F BA 8E FE 7F E7 0F 
   653)       433.8  Rx     0BA40000  8  20 00 00 00 00 00 00 00 
   654)       434.0  Rx         045A  8  97 E3 E5 E8 02 46 15 CB 
   655)       434.3  Rx         00A1  8  3C A9 00 00 00 00 00 00 
   656)       434.5  Rx         00A3  8  79 A9 00 00 00 00 00 00 
   657)       436.5  Rx         0162  8  23 0F E7 0F E7 0F E7 0F 
   658)       436.7  Rx         009C  8  70 2E 58 FF 03 14 00 00 
   659)       437.3  Rx         0085  8  1A 0F 00 00 00 55 31 05 
   660)       437.5  Rx         00A9  8  32 0F 00 00 00 00 00 00 
   661)       437.8  Rx         00AE  8  03 D0 BE 03 00 00 68 00 
   662)       438.0  Rx         0110  8  60 3F E6 05 80 78 00 80 
   663)       438.3  Rx         0151  8  60 FF FA 92 00 80 5C C7 
   664)       438.5  Rx     18EF6303  8  07 00 00 00 AC 0D 80 0C 
   665)       438.8  Rx     18EF6304  8  03 00 00 00 00 00 00 00 
   666)       439.1  Rx         02CB  8  00 00 3D 3C FF 2A 00 00 
   667)       439.4  Rx     18EF6305  8  01 00 00 00 00 00 00 1F 
   668)       440.5  Rx         00B1  8  7D 0E FF 00 00 FF 1F 1E 
   669)       440.8  Rx         027D  8  00 40 01 00 00 00 00 00 
   670)       441.6  Rx         0138  8  00 00 43 44 FC 1F 00 00 
   671)       443.7  Rx     04880001  8  0A 5F 00 00 00 00 00 00 
   672)       444.2  Rx         00B9  8  56 4A 00 00 00 00 FF 32 
   673)       444.5  Rx         0099  8  39 1A 00 00 00 20 00 20 
   674)       445.7  Rx         00D1  8  36 0C E0 00 E0 9E FF 64 
   675)       446.5  Rx         0162  8  24 E7 0F E8 0F E7 0F E7 
   676)       448.3  Rx         0113  8  DA 0C 00 7D 02 00 2F 01 
   677)       450.6  Rx         00B1  8  81 0F FF 00 00 FF 1F 1E 
   678)       450.8  Rx         0371  8  8C 4F F2 09 3E 3D 3B 01 
   679)       451.0  Rx         03CC  8  00 00 00 00 00 00 00 3D 
   680)       452.0  Rx         010B  8  00 00 AF 0B 00 9E 3F 00 
   681)       452.2  Rx         0076  8  0E 8A A0 87 DA 3E 00 00 
   682)       452.4  Rx         00B0  8  08 5F BA 8E FE 7F E7 0F 
   683)       454.2  Rx         00A1  8  4A AA 00 00 00 00 00 00 
   684)       454.4  Rx         00A3  8  6E AA 00 00 00 00 00 00 
   685)       455.5  Rx         02D3  8  7B FF 47 0B 7E 00 60 CF 
   686)       456.5  Rx         0162  8  25 0F E7 0F E8 0F E7 0F 
   687)       456.7  Rx         009C  8  23 2F 58 FF 03 14 00 00 
   688)       457.3  Rx         0085  8  90 00 00 00 00 55 31 05 
   689)       457.6  Rx         00A9  8  EA 00 00 00 00 00 00 00 
   690)       457.8  Rx         00AE  8  90 D1 BE 03 00 00 68 00 
   691)       458.0  Rx         0110  8  A4 30 E6 05 80 78 00 80 
   692)       458.3  Rx         02FA  8  FF 00 78 00 80 E0 00 1C 
   693)       458.5  Rx         013C  8  FF FF 00 01 EE 15 02 01 
   694)       458.8  Rx     18EF6303  8  08 00 00 00 00 64 64 64 
   695)       459.1  Rx         0493  8  23 00 21 00 DD 05 91 7E 
   696)       459.3  Rx     18EF6304  8  04 00 00 00 00 00 00 00 
   697)       459.6  Rx     18EF6305  8  02 00 00 04 00 01 E8 4E 
   698)       460.5  Rx         00B1  8  A3 00 FF 00 00 FF 1F 1E 
   699)       460.8  Rx         027D  8  00 40 01 00 00 00 00 00 
   700)       461.1  Rx         02CA  8  FF FF FF 03 00 00 00 00 
   701)       464.3  Rx         00B9  8  A1 4B 00 00 00 00 FF 32 
   702)       464.5  Rx         0099  8  4F 1B 00 00 00 20 00 20 
   703)       465.7  Rx         00D1  8  83 0D E0 FF DF 9E FF 64 
   704)       466.5  Rx         0162  8  26 E7 0F E6 0F E8 00 18 
   705)       468.3  Rx         0113  8  78 0D 00 7D 02 00 2F 01 
   706)       468.6  Rx         01BD  8  FF FF FF 1F FF FF FF 1F 
   707)       470.6  Rx         00B1  8  08 01 FF 00 00 FF 1F 1E 
   708)       470.8  Rx         0371  8  AF 40 F2 09 3E 3D 3B 01 
   709)       471.9  Rx         010B  8  00 00 AF 0B 00 9E 3F 00 
   710)       472.2  Rx         0076  8  0E 8A A0 87 DA 3E 00 00 
   711)       472.4  Rx         00B0  8  08 5F BA 8E FE 7F E7 0F 
   712)       474.2  Rx         00A1  8  D1 AB 00 00 00 00 00 00 
   713)       474.5  Rx         00A3  8  81 AB 00 00 00 00 00 00 
   714)       476.5  Rx         0162  8  27 00 47 00 47 00 47 00 
   715)       476.7  Rx         009C  8  39 20 58 FF 03 14 00 00 
   716)       477.3  Rx         0085  8  4A 01 00 00 00 55 31 05 
   717)       477.5  Rx         00A9  8  53 01 00 00 00 00 00 00 
   718)       477.8  Rx         00AE  8  78 D2 BE 03 00 00 68 00 
   719)       478.0  Rx         0110  8  B1 31 E6 05 80 78 00 80 
   720)       478.5  Rx     18EF6303  8  09 E3 29 01 88 13 00 00 
   721)       478.8  Rx     18EF6304  8  05 00 00 00 00 00 00 00 
   722)       479.0  Rx         02CC  8  85 37 0E 00 00 7A 49 00 
   723)       479.3  Rx     18EF6305  8  03 00 00 00 00 00 00 0C 
   724)       480.6  Rx         00B1  8  1F 02 FF 00 00 FF 1F 1E 
   725)       480.8  Rx         0233  8  02 FF 00 00 00 00 00 00 
   726)       481.0  Rx         027D  8  00 40 01 00 00 00 00 00 
   727)       484.2  Rx         00B9  8  C3 4C 00 00 00 00 FF 32 
   728)       484.5  Rx         0099  8  22 1C 00 00 00 20 00 20 
   729)       485.7  Rx         00D1  8  3D 0E E0 00 E0 9E FF 64 
   730)       486.5  Rx         0162  8  28 46 00 47 00 46 00 47 
   731)       486.7  Rx         0134  8  02 84 30 55 F4 21 00 00 
   732)       488.4  Rx         0113  8  B1 0E 00 7D 02 00 2F 01 
   733)       490.5  Rx         00B1  8  B4 03 FF 00 00 FF 1F 1E 
   734)       490.8  Rx         0371  8  CE 41 F2 09 3E 3D 3B 01 
   735)       491.6  Rx         0136  8  00 07 00 04 1C 00 00 00 
   736)       491.9  Rx         010B  8  00 00 AF 0B 00 9E 3F 00 
   737)       492.2  Rx         0076  8  0E 8A A0 87 DA 3E 00 00 
   738)       492.4  Rx         00B0  8  08 5F BA 8E FE 7F E7 0F 
   739)       494.2  Rx         00A1  8  37 AC 00 00 00 00 00 00 
   740)       494.5  Rx         00A3  8  7F AC 00 00 00 00 00 00 
   741)       496.5  Rx         0162  8  29 00 47 00 46 00 47 00 
   742)       496.7  Rx         009C  8  57 21 58 FF 03 14 00 00 
   743)       497.3  Rx         0085  8  8C 02 00 00 00 55 31 05 
   744)       497.5  Rx         00A9  8  51 02 00 00 00 00 00 00 
   745)       497.8  Rx         00AE  8  53 D3 BE 03 00 00 68 00 
   746)       498.0  Rx         0110  8  D9 32 E6 05 80 78 00 80 
   747)       498.5  Rx     18EF6303  8  0A 80 0C 00 00 00 00 20 
   748)       498.7  Rx         00D3  8  13 00 D0 07 00 C0 00 00 
   749)       499.0  Rx     18EF6304  8  06 00 00 00 00 00 00 54 
   750)       499.3  Rx     18EF6305  8  04 03 00 03 00 03 00 00 
   751)       500.5  Rx         00B1  8  E2 04 FF 00 00 FF 1F 1E 
   752)       500.8  Rx         027D  8  00 40 01 00 00 00 00 00 
   753)       504.2  Rx         00B9  8  63 4D 00 00 00 00 FF 32 
   754)       504.5  Rx         0099  8  27 1D 00 00 00 20 00 20 
   755)       505.7  Rx         00D1  8  A7 0F E0 FF DF 9E FF 64 
   756)       506.5  Rx         0162  8  2A 46 00 46 00 47 00 46 
   757)       508.3  Rx         02BB  8  43 FF 7F FF CF 20 FF 3D 
   758)       508.5  Rx         0113  8  14 0F 00 7D 02 00 2F 01 
   759)       510.5  Rx         00B1  8  AF 05 FF 00 00 FF 1F 1E 
   760)       510.8  Rx         0170  8  FF FF 00 00 00 00 00 00 
   761)       511.1  Rx         0371  8  84 42 F2 09 3E 3D 3B 01 
   762)       512.2  Rx         013B  8  97 05 00 00 00 E3 46 04 
   763)       512.4  Rx         010B  8  00 00 AF 0B 00 9E 3F 00 
   764)       512.7  Rx         0076  8  0E 8A A0 87 DA 3E 00 00 
   765)       512.9  Rx         00B0  8  08 5F BA 8E FE 7F E7 0F 
   766)       513.7  Rx         007F  8  FF 3F FF 1F FF 3F FF 1F 
   767)       514.2  Rx         00A1  8  1C AD 00 00 00 00 00 00 
   768)       514.5  Rx         00A3  8  46 AD 00 00 00 00 00 00 
   769)       515.5  Rx         0489  8  00 14 38 82 43 57 66 00 
   770)       516.5  Rx         0162  8  2B 00 47 00 47 00 47 00 
   771)       516.7  Rx         009C  8  06 22 58 FF 03 14 00 00 
   772)       517.3  Rx         0085  8  0C 03 00 00 00 55 31 05 
   773)       517.5  Rx         00A9  8  0E 03 00 00 00 00 00 00 
   774)       517.8  Rx         00AE  8  DC D4 BE 03 00 00 68 00 
   775)       518.0  Rx         0110  8  70 33 E6 05 80 78 00 80 
   776)       518.5  Rx     18EF6303  8  0B 00 00 00 00 00 00 06 
   777)       518.7  Rx     18EF6304  8  07 D8 05 95 16 DB 0C 00 
   778)       519.0  Rx     18EF6305  8  05 38 36 F1 0C 12 00 00 
   779)       520.5  Rx         003F  8  C3 89 00 00 01 00 FC 5F 
   780)       520.7  Rx         00B1  8  9B 06 FF 00 00 FF 1F 1E 
   781)       521.0  Rx         0161  8  4B 48 00 00 00 00 FF 01 
   782)       521.3  Rx         027D  8  00 40 01 00 00 00 00 00 
   783)       524.2  Rx         00B9  8  02 4E 00 00 00 00 FF 32 
   784)       524.5  Rx         0099  8  CE 1E 00 00 00 20 00 20 
   785)       525.5  Rx         02B8  8  FF FF FF FF FF 1F 00 00 
   786)       525.8  Rx         00D1  8  E4 00 E0 FF DF 9E FF 64 
   787)       526.5  Rx         0162  8  2C 47 00 47 00 47 00 47 
   788)       526.7  Rx         0020  8  20 0A 40 0C C0 00 00 00 
   789)       527.3  Rx         01E4  8  00 00 00 00 00 00 00 00 
   790)       527.4  Rx         02CE  2  3F 00 
   791)       528.3  Rx         0113  8  84 00 00 7D 02 00 2F 01 
   792)       530.6  Rx         00B1  8  35 07 FF 00 00 FF 1F 1E 
   793)       530.8  Rx         0173  8  00 00 00 00 00 00 F0 3F 
   794)       531.0  Rx         0371  8  76 43 F2 09 3E 3D 3B 01 
   795)       532.0  Rx         010B  8  00 00 AF 0B 00 9E 3F 00 
   796)       532.3  Rx         0076  8  0E 8A A0 87 DA 3E 00 00 
   797)       532.5  Rx         00B0  8  08 5F BA 8E FE 7F E7 0F 
   798)       533.8  Rx     0BA40000  8  20 00 00 00 00 00 00 00 
   799)       534.2  Rx         00A1  8  6B AE 00 00 00 00 00 00 
   800)       534.4  Rx         00A3  8  F4 AE 00 00 00 00 00 00 
   801)       536.5  Rx         0162  8  2D 00 46 00 47 00 47 AA 
   802)       536.7  Rx         009C  8  1D 23 58 FF 03 14 00 00 
   803)       537.3  Rx         0085  8  FF 04 00 00 00 55 31 05 
   804)       537.6  Rx         00A9  8  B3 04 00 00 00 00 00 00 
   805)       537.8  Rx         00AE  8  40 D5 BE 03 00 00 68 00 
   806)       538.0  Rx         0110  8  09 34 E6 05 80 78 00 80 
   807)       538.2  Rx         0151  8  60 FF FA 92 00 80 D7 C8 
   808)       538.5  Rx     18EF6303  8  0C D5 2F D6 00 D5 00 06 
   809)       538.8  Rx     18EF6304  8  00 00 00 04 00 00 00 64 
   810)       539.0  Rx         02CB  8  00 00 3D 3C FF 2A 00 00 
   811)       539.3  Rx     18EF6305  8  00 48 48 48 00 00 48 00 
   812)       540.5  Rx         00B1  8  41 08 FF 00 00 FF 1F 1E 
   813)       540.8  Rx         027D  8  00 40 01 00 00 00 00 00 
   814)       540.9  Rx         03CA  2  FF FF 
   815)       541.6  Rx         0138  8  00 00 43 44 FC 1F 00 00 
   816)       543.7  Rx     04880001  8  0A 5F 00 00 00 00 00 00 
   817)       544.3  Rx         00B9  8  7F 4F 00 00 00 00 FF 32 
   818)       544.5  Rx         0099  8  A4 1F 00 00 00 20 00 20 
   819)       545.7  Rx         00D1  8  E0 01 E0 FF DF 9E FF 64 
   820)       548.3  Rx         0113  8  63 01 00 7D 02 00 2F 01 
   821)       550.5  Rx         00B1  8  0C 09 FF 00 00 FF 1F 1E 
   822)       550.8  Rx         0371  8  83 44 F2 09 3E 3D 3B 01 
   823)       552.0  Rx         010B  8  00 00 AF 0B 00 9E 3F 00 
   824)       552.2  Rx         0076  8  0F 7A A0 87 DA 3E 00 00 
   825)       552.4  Rx         00B0  8  08 5F BA 8E FE 7F E7 0F 
   826)       554.2  Rx         00A1  8  89 AF 00 00 00 00 00 00 
   827)       554.4  Rx         00A3  8  7D AF 00 00 00 00 00 00 
   828)       555.5  Rx         02D3  8  7B FF 47 0B 7E 00 80 DF 
   829)       555.7  Rx         0068  1  02 
   830)       556.6  Rx         009C  8  F4 24 58 FF 03 14 00 00 
   831)       557.3  Rx         0085  8  B3 05 00 00 00 55 31 05 
   832)       557.5  Rx         00A9  8  0A 05 00 00 00 00 00 00 
   833)       557.7  Rx         00AE  8  FD D6 BE 03 00 00 68 00 
   834)       558.0  Rx         0110  8  1C 35 E6 05 80 78 00 80 
   835)       558.4  Rx     18EF6303  8  0D 00 00 40 1F AC 0D 00 
   836)       558.7  Rx         013C  8  FF FF 00 01 4D 16 02 01 
   837)       558.9  Rx         0493  8  23 00 21 00 DD 05 91 7E 
   838)       559.2  Rx     18EF6304  8  01 00 00 00 00 00 00 17 
   839)       559.5  Rx     18EF6305  8  01 00 00 00 00 00 00 2B 
   840)       560.5  Rx         00B1  8  38 0A FF 00 00 FF 1F 1E 
   841)       560.8  Rx         027D  8  00 40 01 00 00 00 00 00 
   842)       561.0  Rx         02CA  8  FF FF FF 03 00 00 00 00 
   843)       564.2  Rx         00B9  8  8D 40 00 00 00 00 FF 32 
   844)       564.5  Rx         0099  8  EA 10 00 00 00 20 00 20 
   845)       565.7  Rx         00D1  8  C9 02 E0 01 E0 9E FF 64 
   846)       568.3  Rx         0113  8  86 02 00 7D 02 00 2F 01 
   847)       568.6  Rx         01BD  8  FF FF FF 1F FF FF FF 1F 
   848)       570.5  Rx         00B1  8  05 0B FF 00 00 FF 1F 1E 
   849)       570.8  Rx         0371  8  E2 45 F2 09 3E 3D 3B 01 
   850)       571.9  Rx         010B  8  00 00 AF 0B 00 9E 3F 00 
   851)       572.2  Rx         0076  8  0F 7A A0 87 DA 3E 00 00 
   852)       572.4  Rx         00B0  8  08 5F BA 8E FE 7F E7 0F 
   853)       574.2  Rx         00A1  8  E7 A0 00 00 00 00 00 00 
   854)       574.5  Rx         00A3  8  77 A0 00 00 00 00 00 00 
   855)       576.6  Rx         009C  8  B0 25 58 FF 03 14 00 00 
   856)       577.3  Rx         0085  8  1D 06 00 00 00 55 31 05 
   857)       577.5  Rx         00A9  8  4A 06 00 00 00 00 00 00 
   858)       577.7  Rx         00AE  8  E6 D7 BE 03 00 00 68 00 
   859)       578.0  Rx         0110  8  23 36 E6 05 80 78 00 80 
   860)       578.3  Rx     0BD80000  8  08 00 00 C0 00 80 3F 3E 
   861)       578.5  Rx     18EF6303  8  0E 54 0D AC 0D 40 1F 00 
   862)       578.8  Rx     18EF6304  8  02 00 00 49 49 49 E4 0C 
   863)       579.1  Rx     18EF6305  8  02 00 00 04 00 01 E8 4E 
   864)       580.5  Rx         00B1  8  D9 0C FF 00 00 FF 1F 1E 
   865)       580.8  Rx         0233  8  02 FF 00 00 00 00 00 00 
   866)       581.0  Rx         027D  8  00 40 01 00 00 00 00 00 
   867)       584.2  Rx         00B9  8  DD 41 00 00 00 00 FF 32 
   868)       584.5  Rx         0099  8  EF 11 00 00 00 20 00 20 
   869)       585.7  Rx         00D1  8  2B 03 E0 01 E0 9E FF 64 
   870)       586.6  Rx         0134  8  02 84 30 55 F4 21 00 00 
   871)       587.3  Rx         03F2  8  FF 01 00 00 00 00 7A FF 
   872)       588.4  Rx         0113  8  87 03 00 7D 02 00 2F 01 
   873)       590.5  Rx         00B1  8  F8 0D FF 00 00 FF 1F 1E 
   874)       590.8  Rx         0371  8  A8 46 F2 09 3E 3D 3B 01 
   875)       591.6  Rx         0136  8  00 07 00 04 1C 00 00 00 
   876)       591.9  Rx         010B  8  00 00 AF 0B 00 9E 3F 00 
   877)       592.2  Rx         0076  8  0F 7A A0 87 DA 3E 00 00 
   878)       592.4  Rx         00B0  8  08 5F BA 8E FE 7F E7 0F 
   879)       594.2  Rx         00A1  8  BA A1 00 00 00 00 00 00 
   880)       594.5  Rx         00A3  8  4E A1 00 00 00 00 00 00 
   881)       596.6  Rx         009C  8  BE 26 58 FF 03 14 00 00 
   882)       597.3  Rx         0085  8  28 07 00 00 00 55 31 05 
   883)       597.5  Rx         00A9  8  80 07 00 00 00 00 00 00 
   884)       597.7  Rx         00AE  8  98 D8 BE 03 00 00 68 00 
   885)       598.0  Rx         0110  8  DD 37 E6 05 80 78 00 80 
   886)       598.5  Rx     18EF6303  8  0F 00 AD 0C 65 0B 01 70 
   887)       598.7  Rx         00D3  8  13 00 D0 07 00 C0 00 00 
   888)       599.0  Rx     18EF6304  8  03 00 00 00 00 00 00 00 
   889)       599.3  Rx     18EF6305  8  03 00 00 00 00 00 00 0C 
   890)       600.5  Rx         00B1  8  7D 0E FF 00 00 FF 1F 1E 
   891)       600.8  Rx         027D  8  00 40 01 00 00 00 00 00 
   892)       601.0  Rx     0BD40000  8  04 00 00 C0 FF 01 00 80 
   893)       604.2  Rx         00B9  8  E2 42 00 00 00 00 FF 32 
   894)       604.5  Rx         0099  8  F8 12 00 00 00 20 00 20 
   895)       605.7  Rx         00D1  8  38 04 E0 00 E0 9E FF 64 
   896)       608.2  Rx         02BB  8  43 FF 7F FF CF 20 FF 3D 
   897)       608.5  Rx         0113  8  AC 04 00 7D 02 00 2F 01 
   898)       610.5  Rx         00B1  8  81 0F FF 00 00 FF 1F 1E 
   899)       610.8  Rx         0170  8  FF FF 00 00 00 00 00 00 
   900)       611.0  Rx         0371  8  EF 47 F2 09 3E 3D 3B 01 
   901)       612.2  Rx         013B  8  93 06 00 00 00 E3 46 04 
   902)       612.4  Rx         010B  8  00 00 AF 0B 00 9E 3F 00 
   903)       612.7  Rx         0076  8  0F 7A A0 87 DA 3E 00 00 
   904)       612.9  Rx         00B0  8  08 5F BA 8E FE 7F E7 0F 
   905)       613.7  Rx         007F  8  FF 3F FF 1F FF 3F FF 1F 
   906)       614.2  Rx         00A1  8  90 A2 00 00 00 00 00 00 
   907)       614.5  Rx         00A3  8  D2 A2 00 00 00 00 00 00 
   908)       616.6  Rx         009C  8  6C 27 58 FF 03 14 00 00 
   909)       617.2  Rx         0085  8  D4 08 00 00 00 55 31 05 
   910)       617.5  Rx         00A9  8  1F 08 00 00 00 00 00 00 
   911)       617.8  Rx         00AE  8  CB D9 BE 03 00 00 68 00 
   912)       618.0  Rx         0110  8  0C 38 E6 05 80 78 00 80 
   913)       618.2  Rx         0448  8  94 02 00 3B 38 3D 3E 3B 
   914)       618.5  Rx     18EF6303  8  10 27 01 E8 00 74 03 08 
   915)       618.8  Rx     18EF6304  8  04 00 00 00 00 00 00 00 
   916)       619.1  Rx     18EF6305  8  04 03 00 03 00 03 00 00 
   917)       620.5  Rx         00B1  8  A3 00 FF 00 00 FF 1F 1E 
   918)       620.7  Rx         027D  8  00 40 01 00 00 00 00 00 
   919)       624.2  Rx         00B9  8  F7 43 00 00 00 00 FF 32 
   920)       624.5  Rx         0099  8  8E 13 00 00 00 20 00 20 
   921)       625.5  Rx         026A  8  6F 01 DC E2 FE FE FF FF 
   922)       625.7  Rx         00D1  8  0A 05 E0 00 E0 9E FF 64 
   923)       626.0  Rx         02B8  8  FF FF FF FF FF 1F 00 00 
   924)       626.7  Rx         0020  8  A6 0B 40 0C C0 00 00 00 
   925)       627.3  Rx         01E4  8  00 00 00 00 00 00 00 00 
   926)       628.3  Rx         0113  8  F7 05 00 7D 02 00 2F 01 
   927)       630.6  Rx         00B1  8  08 01 FF 00 00 FF 1F 1E 
   928)       630.8  Rx         0173  8  00 00 00 00 00 00 F0 3F 
   929)       631.0  Rx         0371  8  4B 48 F2 09 3E 3D 3B 01 
   930)       631.7  Rx         046B  8  00 00 3C 50 50 B8 4C 10 
   931)       632.0  Rx         010B  8  00 00 AF 0B 00 9E 3F 00 
   932)       632.2  Rx         0076  8  0E 7A A0 87 DA 3E 00 00 
   933)       632.5  Rx         00B0  8  08 5F BA 8E FE 7F E7 0F 
   934)       633.8  Rx     0BA40000  8  20 00 00 00 00 00 00 00 
   935)       634.0  Rx         045A  8  97 03 E5 E8 02 46 15 CB 
   936)       634.2  Rx         00A1  8  2F A3 00 00 00 00 00 00 
   937)       634.5  Rx         00A3  8  75 A3 00 00 00 00 00 00 
   938)       636.6  Rx         009C  8  1C 28 58 FF 03 14 00 00 
   939)       637.3  Rx         0085  8  AC 09 00 00 00 55 31 05 
   940)       637.5  Rx         00A9  8  D5 09 00 00 00 00 00 00 
   941)       637.8  Rx         00AE  8  05 DA BE 03 00 00 68 00 
   942)       638.0  Rx         0110  8  E7 39 E6 05 80 78 00 80 
   943)       638.2  Rx         0151  8  60 FF FA 92 00 80 67 C9 
   944)       638.5  Rx         0199  8  6F AB C8 FF F1 7F 00 80 
   945)       638.7  Rx     18EF6303  8  11 01 01 06 01 01 02 00 
   946)       639.0  Rx         02CB  8  00 00 3D 3C FF 2A 00 00 
   947)       639.3  Rx     18EF6304  8  05 00 00 00 00 00 00 00 
   948)       639.6  Rx     18EF6305  8  05 42 36 F0 0C 12 00 00 
   949)       640.5  Rx         00B1  8  1F 02 FF 00 00 FF 1F 1E 
   950)       640.8  Rx         027D  8  00 40 01 00 00 00 00 00 
   951)       641.6  Rx         0138  8  00 00 43 44 FC 1F 00 00 
   952)       643.7  Rx     04880001  8  0A 5F 00 00 00 00 00 00 
   953)       644.3  Rx         00B9  8  20 44 00 00 00 00 FF 32 
   954)       644.5  Rx         0099  8  05 14 00 00 00 20 00 20 
   955)       645.7  Rx         00D1  8  FD 06 E0 01 E0 9E FF 64 
   956)       647.2  Rx         0041  8  FC 9F 00 00 30 05 80 FF 
   957)       648.3  Rx         0113  8  4D 06 00 7D 02 00 2F 01 
   958)       650.5  Rx         00B1  8  B4 03 FF 00 00 FF 1F 1E 
   959)       650.8  Rx         0371  8  2A 49 F2 09 3E 3D 3B 01 
   960)       651.0  Rx         03CC  8  00 00 00 00 00 00 00 3D 
   961)       651.9  Rx         010B  8  00 00 AF 0B 00 9E 3F 00 
   962)       652.2  Rx         0076  8  0E 7A A0 87 DA 3E 00 00 
   963)       652.4  Rx         00B0  8  08 5F BA 8E FE 7F E7 0F 
   964)       654.2  Rx         00A1  8  73 A4 00 00 00 00 00 00 
   965)       654.5  Rx         00A3  8  3B A4 00 00 00 00 00 00 
   966)       655.5  Rx         02D3  8  7B FF 47 0B 7E 00 40 CF 
   967)       656.6  Rx         009C  8  31 29 58 FF 03 14 00 00 
   968)       657.3  Rx         0085  8  02 0A 00 00 00 55 31 05 
   969)       657.5  Rx         00A9  8  42 0A 00 00 00 00 00 00 
   970)       657.7  Rx         00AE  8  B8 DB BE 03 00 00 68 00 
   971)       658.0  Rx         0110  8  3A 3A E6 05 80 78 00 80 
   972)       658.2  Rx         02FA  8  FF 00 78 00 80 E0 00 1C 
   973)       658.5  Rx         013C  8  FF FF 00 01 5A 17 02 01 
   974)       658.8  Rx     18EF6303  8  00 D9 00 D8 00 14 01 7A 
   975)       659.0  Rx         0493  8  23 00 21 00 DD 05 91 7E 
   976)       659.3  Rx     18EF6304  8  06 00 00 00 00 00 00 54 
   977)       659.6  Rx     18EF6305  8  00 48 48 48 00 00 47 00 
   978)       660.5  Rx         00B1  8  E2 04 FF 00 00 FF 1F 1E 
   979)       660.8  Rx         027D  8  00 40 01 00 00 00 00 00 
   980)       661.0  Rx         02CA  8  FF FF FF 03 00 00 00 00 
   981)       664.2  Rx         00B9  8  CB 45 00 00 00 00 FF 32 
   982)       664.5  Rx         0099  8  E6 15 00 00 00 20 00 20 
   983)       665.7  Rx         00D1  8  47 07 E0 01 E0 9E FF 64 
   984)       668.3  Rx         0113  8  44 07 00 7D 02 00 2F 01 
   985)       668.7  Rx         01BD  8  FF FF FF 1F FF FF FF 1F 
   986)       670.5  Rx         00B1  8  AF 05 FF 00 00 FF 1F 1E 
   987)       670.7  Rx         0371  8  60 4A F2 09 3E 3D 3B 01 
   988)       672.0  Rx         010B  8  00 00 AF 0B 00 9E 3F 00 
   989)       672.2  Rx         0076  8  0E 7A A0 87 DA 3E 00 00 
   990)       672.5  Rx         00B0  8  08 5F BA 8E FE 7F E7 0F 
   991)       674.2  Rx         00A1  8  E2 A5 00 00 00 00 00 00 
   992)       674.5  Rx         00A3  8  1C A5 00 00 00 00 00 00 
   993)       676.6  Rx         009C  8  9E 2A 58 FF 03 14 00 00 
   994)       677.3  Rx         0085  8  60 0B 00 00 00 55 31 05 
   995)       677.5  Rx         00A9  8  88 0B 00 00 00 00 00 00 
   996)       677.7  Rx         00AE  8  32 DC BE 03 00 00 68 00 
   997)       678.0  Rx         0110  8  9A 3B E6 05 80 78 00 80 
   998)       678.5  Rx     18EF6303  8  01 E7 00 00 00 D7 00 03 
   999)       678.7  Rx     18EF6304  8  07 D6 05 99 16 DB 0C 00 
  1000)       679.0  Rx         02CC  8  85 37 0E 00 00 7A 49 00 
  1001)       679.3  Rx     18EF6305  8  01 00 00 00 00 00 00 05 
  1002)       680.5  Rx         00B1  8  9B 06 FF 00 00 FF 1F 1E 
  1003)       680.8  Rx         0233  8  02 FF 00 00 00 00 00 00 
  1004)       681.0  Rx         027D  8  00 40 01 00 00 00 00 00 
  1005)       684.2  Rx         00B9  8  AA 46 00 00 00 00 FF 32 
  1006)       684.5  Rx         0099  8  0F 16 00 00 00 20 00 20 
  1007)       685.7  Rx         00D1  8  8D 08 E0 00 E0 9E FF 64 
  1008)       686.6  Rx         0134  8  02 84 30 55 F4 21 00 00 
  1009)       688.4  Rx         0113  8  10 08 00 7D 02 00 2F 01 
  1010)       690.5  Rx         00B1  8  35 07 FF 00 00 FF 1F 1E 
  1011)       690.8  Rx     0BE00000  8  D1 03 FE 3F 08 00 00 00 
  1012)       691.1  Rx         0371  8  FE 4B F2 09 3E 3D 3B 01 
  1013)       691.6  Rx         0136  8  00 07 00 04 1C 00 00 00 
  1014)       692.0  Rx         010B  8  00 00 AF 0B 00 9E 3F 00 
  1015)       692.2  Rx         0076  8  0E 7A A0 87 DA 3E 00 00 
  1016)       692.5  Rx         00B0  8  08 5F BA 8E FE 7F E7 0F 
  1017)       694.2  Rx         00A1  8  6C A6 00 00 00 00 00 00 
  1018)       694.4  Rx         00A3  8  95 A6 00 00 00 00 00 00 
  1019)       696.6  Rx         009C  8  66 2B 58 FF 03 14 00 00 
  1020)       697.2  Rx         0085  8  9A 0C 00 00 00 55 31 05 
  1021)       697.5  Rx         00A9  8  46 0C 00 00 00 00 00 00 
  1022)       697.8  Rx         00AE  8  6A DD BE 03 00 00 68 00 
  1023)       698.0  Rx         0110  8  44 3C E6 05 80 78 00 80 
  1024)       698.4  Rx     18EF6303  8  02 ED 00 E3 00 E1 00 00 
  1025)       698.7  Rx         00D3  8  13 00 D0 07 00 C0 00 00 
  1026)       699.0  Rx     18EF6304  8  00 00 00 04 00 00 00 64 
  1027)       699.2  Rx     18EF6305  8  02 00 00 04 00 01 E8 4E 
  1028)       700.5  Rx         00B1  8  41 08 FF 00 00 FF 1F 1E 
  1029)       700.7  Rx         027D  8  00 40 01 00 00 00 00 00 
  1030)       704.2  Rx         00B9  8  0A 47 00 00 00 00 FF 32 
  1031)       704.5  Rx         0099  8  0A 17 00 00 00 20 00 20 
  1032)       705.7  Rx         00D1  8  A6 F9 DF FF DF 9E FF 64 
  1033)       708.3  Rx         02BB  8  43 FF 7F FF CF 20 FF 3D 
  1034)       708.5  Rx         0113  8  4B 09 00 7D 02 00 2F 01 
  1035)       710.6  Rx         00B1  8  0C 09 FF 00 00 FF 1F 1E 
  1036)       710.8  Rx         0170  8  FF FF 00 00 00 00 00 00 
  1037)       711.0  Rx         0371  8  E8 4C F2 09 3E 3D 3B 01 
  1038)       712.2  Rx         013B  8  0B 07 00 00 00 E3 46 04 
  1039)       712.5  Rx         010B  8  00 00 AF 0B 00 9E 3F 00 
  1040)       712.7  Rx         0076  8  0E 7A A0 87 DA 3E 00 00 
  1041)       712.9  Rx         00B0  8  08 5F BA 8E FE 7F E7 0F 
  1042)       713.6  Rx         007F  8  FF 3F FF 1F FF 3F FF 1F 
  1043)       714.2  Rx         00A1  8  A1 A7 00 00 00 00 00 00 
  1044)       714.4  Rx         00A3  8  4A A7 00 00 00 00 00 00 
  1045)       715.5  Rx         0489  8  00 14 38 82 43 57 66 00 
  1046)       716.6  Rx         009C  8  A9 2C 58 FF 03 14 00 00 
  1047)       717.3  Rx         0085  8  3D 0D 00 00 00 55 31 05 
  1048)       717.5  Rx         00A9  8  8C 0D 00 00 00 00 00 00 
  1049)       717.7  Rx         00AE  8  17 DE BE 03 00 00 68 00 
  1050)       718.0  Rx         0110  8  4A 3D E6 05 80 78 00 80 
  1051)       718.4  Rx     18EF6303  8  03 00 00 40 1F 01 02 58 
  1052)       718.7  Rx     18EF6304  8  01 00 00 00 00 00 00 19 
  1053)       719.0  Rx     18EF6305  8  03 00 00 00 00 00 00 0C 
  1054)       720.5  Rx         00B1  8  38 0A FF 00 00 FF 1F 1E 
  1055)       720.8  Rx         0161  8  4B 48 00 00 00 00 FF 01 
  1056)       721.0  Rx         027D  8  00 40 01 00 00 00 00 00 
  1057)       721.3  Rx     0BE40000  8  93 03 FE 3F 00 00 00 00 
  1058)       724.2  Rx         00B9  8  39 48 00 00 00 00 FF 32 
  1059)       724.5  Rx         0099  8  D5 18 00 00 00 20 00 20 
  1060)       725.5  Rx         02B8  8  FF FF FF FF FF 1F 00 00 
  1061)       725.7  Rx         00D1  8  DD FA DF 00 E0 9E FF 64 
  1062)       726.7  Rx         0020  8  28 0C 40 0C C0 00 00 00 
  1063)       727.2  Rx         01E4  8  00 00 00 00 00 00 00 00 
  1064)       728.3  Rx         0113  8  81 0A 00 7D 02 00 2F 01 
  1065)       728.8  Rx         02D2  8  FF 0F 40 00 00 00 00 00 
  1066)       730.5  Rx         00B1  8  05 0B FF 00 00 FF 1F 1E 
  1067)       730.8  Rx         0173  8  00 00 00 00 00 00 F0 3F 
  1068)       731.0  Rx         0371  8  6A 4D F2 09 3E 3D 3B 01 
  1069)       732.0  Rx         010B  8  00 00 AF 0B 00 9E 3F 00 
  1070)       732.3  Rx         0076  8  0F 8A A0 87 DA 3E 00 00 
  1071)       732.5  Rx         00B0  8  08 5F BA 8E FE 7F E7 0F 
  1072)       733.8  Rx     0BA40000  8  20 00 00 00 00 00 00 00 
  1073)       734.2  Rx         00A1  8  38 A8 00 00 00 00 00 00 
  1074)       734.4  Rx         00A3  8  38 A8 00 00 00 00 00 00 
  1075)       736.5  Rx         009C  8  76 2D 58 FF 03 14 00 00 
  1076)       737.3  Rx         0085  8  26 0E 00 00 00 55 31 05 
  1077)       737.5  Rx         00A9  8  F8 0E 00 00 00 00 00 00 
  1078)       737.7  Rx         00AE  8  11 DF BE 03 00 00 68 00 
  1079)       738.0  Rx         0110  8  97 3E E6 05 80 78 00 80 
  1080)       738.2  Rx         0151  8  60 FF FA 92 00 80 45 CA 
  1081)       738.5  Rx     18EF6303  8  04 13 11 00 13 1D 20 00 
  1082)       738.8  Rx     18EF6304  8  02 00 00 49 49 49 E4 0C 
  1083)       739.0  Rx         02CB  8  00 00 3D 3C FF 2A 00 00 
  1084)       739.3  Rx     18EF6305  8  04 03 00 03 00 03 00 00 
  1085)       740.5  Rx         00B1  8  D9 0C FF 00 00 FF 1F 1E 
  1086)       740.8  Rx         027D  8  00 40 01 00 00 00 00 00 
  1087)       741.6  Rx         0138  8  00 00 43 44 FC 1F 00 00 
  1088)       743.8  Rx     04880001  8  0A 5F 00 00 00 00 00 00 
  1089)       744.2  Rx         00B9  8  CE 49 00 00 00 00 FF 32 
  1090)       744.5  Rx         0099  8  A3 19 00 00 00 20 00 20 
  1091)       745.8  Rx         00D1  8  A8 0B E0 FF DF 9E FF 64 
  1092)       748.3  Rx         0113  8  3C 0B 00 7D 02 00 2F 01 
  1093)       750.5  Rx         00B1  8  F8 0D FF 00 00 FF 1F 1E 
  1094)       750.7  Rx         0371  8  0E 4E F2 09 3E 3D 3B 01 
  1095)       752.0  Rx         010B  8  00 00 AF 0B 00 9E 3F 00 
  1096)       752.2  Rx         0076  8  0F 8A A0 87 DA 3E 00 00 
  1097)       752.5  Rx         00B0  8  08 5F BA 8E FE 7F E7 0F 
  1098)       754.2  Rx         00A1  8  3C A9 00 00 00 00 00 00 
  1099)       754.5  Rx         00A3  8  79 A9 00 00 00 00 00 00 
  1100)       755.5  Rx         02D3  8  7B FF 47 0B 7E 00 80 DF 
  1101)       755.7  Rx         0068  1  02 
  1102)       756.6  Rx         009C  8  70 2E 58 FF 03 14 00 00 
  1103)       757.3  Rx         0085  8  1A 0F 00 00 00 55 31 05 
  1104)       757.5  Rx         00A9  8  32 0F 00 00 00 00 00 00 
  1105)       757.7  Rx         00AE  8  03 D0 BE 03 00 00 68 00 
  1106)       758.0  Rx         0110  8  60 3F E6 05 80 78 00 80 
  1107)       758.3  Rx         043C  8  00 00 03 00 00 00 00 00 
  1108)       758.5  Rx         013C  8  FF FF 00 01 0A 18 02 01 
  1109)       758.8  Rx     18EF6303  8  05 00 00 00 00 00 00 01 
  1110)       759.0  Rx         0493  8  23 00 21 00 DD 05 91 7E 
  1111)       759.3  Rx     18EF6304  8  03 00 00 00 00 00 00 00 
  1112)       759.6  Rx     18EF6305  8  05 42 36 F1 0C 12 00 00 
  1113)       760.5  Rx         00B1  8  7D 0E FF 00 00 FF 1F 1E 
  1114)       760.8  Rx         027D  8  00 40 01 00 00 00 00 00 
  1115)       761.0  Rx         02CA  8  FF FF FF 03 00 00 00 00 
  1116)       764.2  Rx         00B9  8  56 4A 00 00 00 00 FF 32 
  1117)       764.5  Rx         0099  8  39 1A 00 00 00 20 00 20 
  1118)       765.7  Rx         00D1  8  F9 FC DF FF DF 9E FF 64 
  1119)       768.3  Rx         0113  8  DA 0C 00 7D 02 00 2F 01 
  1120)       768.7  Rx         01BD  8  FF FF FF 1F FF FF FF 1F 
  1121)       770.5  Rx         00B1  8  81 0F FF 00 00 FF 1F 1E 
  1122)       770.8  Rx         0371  8  8C 4F F2 09 3E 3D 3B 01 
  1123)       772.0  Rx         010B  8  00 00 AF 0B 00 9E 3F 00 
  1124)       772.3  Rx         0076  8  0F 8A A0 87 DA 3E 00 00 
  1125)       772.5  Rx         00B0  8  08 5F BA 8E FE 7F E7 0F 
  1126)       774.2  Rx         00A1  8  4A AA 00 00 00 00 00 00 
  1127)       774.4  Rx         00A3  8  6E AA 00 00 00 00 00 00 
  1128)       776.6  Rx         009C  8  23 2F 58 FF 03 14 00 00 
  1129)       777.3  Rx         0085  8  90 00 00 00 00 55 31 05 
  1130)       777.5  Rx         00A9  8  EA 00 00 00 00 00 00 00 
  1131)       777.8  Rx         00AE  8  90 D1 BE 03 00 00 68 00 
  1132)       778.0  Rx         0110  8  A4 30 E6 05 80 78 00 80 
  1133)       778.5  Rx     18EF6303  8  06 BC 02 BC 02 00 00 00 
  1134)       778.8  Rx     18EF6304  8  04 00 00 00 00 00 00 00 
  1135)       779.0  Rx     18EF6305  8  00 48 48 48 00 00 48 00 
  1136)       780.5  Rx         00B1  8  A3 00 FF 00 00 FF 1F 1E 
  1137)       780.8  Rx         0233  8  02 FF 00 00 00 00 00 00 
  1138)       781.0  Rx         027D  8  00 40 01 00 00 00 00 00 
  1139)       784.2  Rx         00B9  8  A1 4B 00 00 00 00 FF 32 
  1140)       784.5  Rx         0099  8  4F 1B 00 00 00 20 00 20 
  1141)       785.7  Rx         00D1  8  A1 FD DF FF DF 9E FF 64 
  1142)       786.6  Rx         0134  8  02 84 30 55 F4 21 00 00 
  1143)       787.2  Rx         03F2  8  FF 01 00 00 00 00 7A FF 
  1144)       788.4  Rx         0113  8  78 0D 00 7D 02 00 2F 01 
  1145)       790.5  Rx         00B1  8  08 01 FF 00 00 FF 1F 1E 
  1146)       790.8  Rx         0371  8  AF 40 F2 09 3E 3D 3B 01 
  1147)       791.6  Rx         0136  8  00 07 00 04 1C 00 00 00 
  1148)       792.0  Rx         010B  8  00 00 AF 0B 00 9E 3F 00 
  1149)       792.2  Rx         0076  8  0F 8A A0 87 DA 3E 00 00 
  1150)       792.5  Rx         00B0  8  08 5F BA 8E FE 7F E7 0F 
  1151)       794.2  Rx         00A1  8  D1 AB 00 00 00 00 00 00 
  1152)       794.4  Rx         00A3  8  81 AB 00 00 00 00 00 00 
  1153)       796.6  Rx         009C  8  39 20 58 FF 03 14 00 00 
  1154)       797.3  Rx         0085  8  4A 01 00 00 00 55 31 05 
  1155)       797.5  Rx         00A9  8  53 01 00 00 00 00 00 00 
  1156)       797.7  Rx         00AE  8  78 D2 BE 03 00 00 68 00 
  1157)       798.0  Rx         0110  8  B1 31 E6 05 80 78 00 80 
  1158)       798.4  Rx     18EF6303  8  07 00 00 00 AC 0D 80 0C 
  1159)       798.7  Rx         00D3  8  13 00 D0 07 00 C0 00 00 
  1160)       799.0  Rx     18EF6304  8  05 00 00 00 00 00 00 00 
  1161)       799.3  Rx     18EF6305  8  01 00 00 00 00 00 00 11 
  1162)       800.5  Rx         00B1  8  1F 02 FF 00 00 FF 1F 1E 
  1163)       800.8  Rx         027D  8  00 40 01 00 00 00 00 00 
  1164)       804.2  Rx         00B9  8  C3 4C 00 00 00 00 FF 32 
  1165)       804.5  Rx         0099  8  22 1C 00 00 00 20 00 20 
  1166)       805.7  Rx         00D1  8  3D 0E E0 00 E0 9E FF 64 
  1167)       808.3  Rx         02BB  8  43 FF 7F FF CF 20 FF 3D 
  1168)       808.5  Rx         0113  8  B1 0E 00 7D 02 00 2F 01 
  1169)       810.5  Rx         00B1  8  B4 03 FF 00 00 FF 1F 1E 
  1170)       810.8  Rx         0170  8  FF FF 00 00 00 00 00 00 
  1171)       811.0  Rx         0371  8  CE 41 F2 09 3E 3D 3B 01 
  1172)       812.3  Rx         013B  8  9C 08 00 00 00 E3 46 04 
  1173)       812.5  Rx         010B  8  00 00 AF 0B 00 9E 3F 00 
  1174)       812.7  Rx         0076  8  0E 7A A0 87 DA 3E 00 00 
  1175)       813.0  Rx         00B0  8  08 5F BA 8E FE 7F E7 0F 
  1176)       813.6  Rx         007F  8  FF 3F FF 1F FF 3F FF 1F 
  1177)       814.2  Rx         00A1  8  37 AC 00 00 00 00 00 00 
  1178)       814.4  Rx         00A3  8  7F AC 00 00 00 00 00 00 
  1179)       816.6  Rx         009C  8  57 21 58 FF 03 14 00 00 
  1180)       817.3  Rx         0085  8  8C 02 00 00 00 55 31 05 
  1181)       817.5  Rx         00A9  8  51 02 00 00 00 00 00 00 
  1182)       817.7  Rx         00AE  8  53 D3 BE 03 00 00 68 00 
  1183)       818.0  Rx         0110  8  D9 32 E6 05 80 78 00 80 
  1184)       818.5  Rx     18EF6303  8  08 00 00 00 00 64 64 64 
  1185)       818.8  Rx     18EF6304  8  06 00 00 00 00 00 00 54 
  1186)       819.0  Rx     18EF6305  8  02 00 00 04 00 01 E8 4E 
  1187)       820.5  Rx         00B1  8  E2 04 FF 00 00 FF 1F 1E 
  1188)       820.8  Rx         027D  8  00 40 01 00 00 00 00 00 
  1189)       821.7  Rx         046B  8  00 00 3C 50 50 B8 4C 10 
  1190)       824.2  Rx         00B9  8  63 4D 00 00 00 00 FF 32 
  1191)       824.5  Rx         0099  8  27 1D 00 00 00 20 00 20 
  1192)       825.5  Rx         026A  8  6F 01 DC E2 FE FE FF FF 
  1193)       825.8  Rx         02B8  8  FF FF FF FF FF 1F 00 00 
  1194)       826.0  Rx         00D1  8  4A 0F E0 00 E0 9E FF 64 
  1195)       826.7  Rx         0020  8  05 0D 40 0C C0 00 00 00 
  1196)       827.2  Rx         01E4  8  00 00 00 00 00 00 00 00 
  1197)       828.3  Rx         0113  8  14 0F 00 7D 02 00 2F 01 
  1198)       830.5  Rx         00B1  8  AF 05 FF 00 00 FF 1F 1E 
  1199)       830.8  Rx         0173  8  00 00 00 00 00 00 F0 3F 
  1200)       831.0  Rx         0371  8  84 42 F2 09 3E 3D 3B 01 
  1201)       832.0  Rx         010B  8  00 00 AF 0B 00 9E 3F 00 
  1202)       832.3  Rx         0076  8  0E 8A A0 87 DA 3E 00 00 
  1203)       832.5  Rx         00B0  8  08 5F BA 8E FE 7F E7 0F 
  1204)       833.8  Rx     0BA40000  8  20 00 00 00 00 00 00 00 
  1205)       834.0  Rx         045A  8  97 03 E4 E8 02 46 15 CB 
  1206)       834.2  Rx         00A1  8  1C AD 00 00 00 00 00 00 
  1207)       834.5  Rx         00A3  8  46 AD 00 00 00 00 00 00 
  1208)       836.5  Rx         009C  8  06 22 58 FF 03 14 00 00 
  1209)       837.2  Rx         0085  8  0C 03 00 00 00 55 31 05 
  1210)       837.5  Rx         00A9  8  0E 03 00 00 00 00 00 00 
  1211)       837.7  Rx         00AE  8  DC D4 BE 03 00 00 68 00 
  1212)       838.0  Rx         0110  8  70 33 E6 05 80 78 00 80 
  1213)       838.2  Rx         0151  8  60 FF FA 92 00 80 85 CB 
  1214)       838.5  Rx     18EF6303  8  09 E3 29 01 88 13 00 00 
  1215)       838.8  Rx     18EF6304  8  07 D6 05 9D 16 DA 0C 00 
  1216)       839.0  Rx         02CB  8  00 00 3D 3C FF 2C 00 00 
  1217)       839.3  Rx     18EF6305  8  03 00 00 00 00 00 00 0C 
  1218)       840.5  Rx         00B1  8  9B 06 FF 00 00 FF 1F 1E 
  1219)       840.8  Rx         027D  8  00 40 01 00 00 00 00 00 
  1220)       841.6  Rx         0138  8  00 00 43 44 FC 1F 00 00 
  1221)       843.7  Rx     04880001  8  0A 5F 00 00 00 00 00 00 
  1222)       844.2  Rx         00B9  8  02 4E 00 00 00 00 FF 32 
  1223)       844.5  Rx         0099  8  CE 1E 00 00 00 20 00 20 
  1224)       845.8  Rx         00D1  8  09 00 E0 00 E0 9E FF 64 
  1225)       848.3  Rx         0113  8  84 00 00 7D 02 00 2F 01 
  1226)       850.5  Rx         00B1  8  35 07 FF 00 00 FF 1F 1E 
  1227)       850.8  Rx         0371  8  76 43 F2 09 3E 3D 3B 01 
  1228)       851.0  Rx         03CC  8  00 00 00 00 00 00 00 3D 
  1229)       852.0  Rx         010B  8  00 00 AF 0B 00 9E 3F 00 
  1230)       852.2  Rx         0076  8  0E 7A A0 87 DA 3E 00 00 
  1231)       852.5  Rx         00B0  8  08 5F BA 8E FE 7F E7 0F 
  1232)       854.2  Rx         00A1  8  6B AE 00 00 00 00 00 00 
  1233)       854.4  Rx         00A3  8  F4 AE 00 00 00 00 00 00 
  1234)       855.5  Rx         02D3  8  7A FF 47 0B 7E 00 40 CF 
  1235)       856.6  Rx         009C  8  1D 23 58 FF 03 14 00 00 
  1236)       857.3  Rx         0085  8  FF 04 00 00 00 55 31 05 
  1237)       857.5  Rx         00A9  8  B3 04 00 00 00 00 00 00 
  1238)       857.8  Rx         00AE  8  40 D5 BE 03 00 00 68 00 
  1239)       858.0  Rx         0110  8  09 34 E6 05 80 78 00 80 
  1240)       858.2  Rx         02FA  8  FF 00 78 00 80 E0 00 1C 
  1241)       858.5  Rx         013C  8  FF FF 00 01 15 19 02 01 
  1242)       858.8  Rx     18EF6303  8  0A 80 0C 00 00 00 00 20 
  1243)       859.0  Rx         0493  8  23 00 21 00 DD 05 91 7E 
  1244)       859.3  Rx     18EF6304  8  00 00 00 04 00 00 00 64 
  1245)       859.6  Rx     18EF6305  8  04 03 00 03 00 03 00 00 
  1246)       860.5  Rx         00B1  8  41 08 FF 00 00 FF 1F 1E 
  1247)       860.8  Rx         027D  8  00 40 01 00 00 00 00 00 
  1248)       861.0  Rx         02CA  8  FF FF FF 03 00 00 00 00 
  1249)       864.2  Rx         00B9  8  7F 4F 00 00 00 00 FF 32 
  1250)       864.5  Rx         0099  8  A4 1F 00 00 00 20 00 20 
  1251)       865.7  Rx         00D1  8  59 01 E0 01 E0 9E FF 64 
  1252)       868.3  Rx         0113  8  63 01 00 7D 02 00 2F 01 
  1253)       868.7  Rx         01BD  8  FF FF FF 1F FF FF FF 1F 
  1254)       870.5  Rx         00B1  8  0C 09 FF 00 00 FF 1F 1E 
  1255)       870.8  Rx         0371  8  83 44 F2 09 3E 3D 3B 01 
  1256)       872.0  Rx         010B  8  00 00 AF 0B 00 9E 3F 00 
  1257)       872.2  Rx         0076  8  0E 8A A0 87 DA 3E 00 00 
  1258)       872.5  Rx         00B0  8  08 5F BA 8E FE 7F E7 0F 
  1259)       874.2  Rx         00A1  8  89 AF 00 00 00 00 00 00 
  1260)       874.4  Rx         00A3  8  7D AF 00 00 00 00 00 00 
  1261)       876.6  Rx         009C  8  F4 24 58 FF 03 14 00 00 
  1262)       877.3  Rx         0085  8  B3 05 00 00 00 55 31 05 
  1263)       877.5  Rx         00A9  8  0A 05 00 00 00 00 00 00 
  1264)       877.8  Rx         00AE  8  FD D6 BE 03 00 00 68 00 
  1265)       878.0  Rx         0110  8  1C 35 E6 05 80 78 00 80 
  1266)       878.4  Rx     18EF6303  8  0B 00 00 00 00 00 00 06 
  1267)       878.7  Rx     18EF6304  8  01 00 00 00 00 00 00 1A 
  1268)       879.0  Rx         02CC  8  85 37 0E 00 00 7A 49 00 
  1269)       879.3  Rx     18EF6305  8  05 38 36 F0 0C 12 00 00 
  1270)       880.5  Rx         00B1  8  38 0A FF 00 00 FF 1F 1E 
  1271)       880.8  Rx         0233  8  02 FF 00 00 00 00 00 00 
  1272)       881.0  Rx         027D  8  00 40 01 00 00 00 00 00 
  1273)       883.7  Rx         03C8  8  FF FF FF FF FF FF FF 8F 
  1274)       884.2  Rx         00B9  8  8D 40 00 00 00 00 FF 32 
  1275)       884.5  Rx         0099  8  EA 10 00 00 00 20 00 20 
  1276)       885.7  Rx         00D1  8  9D 02 E0 00 E0 9E FF 64 
  1277)       886.6  Rx         0134  8  02 84 30 55 F4 21 00 00 
  1278)       888.4  Rx         0113  8  86 02 00 7D 02 00 2F 01 
  1279)       890.5  Rx         00B1  8  05 0B FF 00 00 FF 1F 1E 
  1280)       890.7  Rx         0371  8  E2 45 F2 09 3E 3D 3B 01 
  1281)       891.6  Rx         0136  8  00 07 00 04 1C 00 00 00 
  1282)       892.0  Rx         010B  8  00 00 AF 0B 00 9E 3F 00 
  1283)       892.2  Rx         0076  8  0E 8A A0 87 DA 3E 00 00 
  1284)       892.4  Rx         00B0  8  08 5F BA 8E FE 7F E7 0F 
  1285)       894.2  Rx         00A1  8  E7 A0 00 00 00 00 00 00 
  1286)       894.4  Rx         00A3  8  77 A0 00 00 00 00 00 00 
  1287)       896.5  Rx         009C  8  B0 25 58 FF 03 14 00 00 
  1288)       897.3  Rx         0085  8  1D 06 00 00 00 55 31 05 
  1289)       897.5  Rx         00A9  8  4A 06 00 00 00 00 00 00 
  1290)       897.7  Rx         00AE  8  E6 D7 BE 03 00 00 68 00 
  1291)       898.0  Rx         0110  8  23 36 E6 05 80 78 00 80 
  1292)       898.5  Rx     18EF6303  8  0C CD 2F D6 00 D5 00 06 
  1293)       898.7  Rx         00D3  8  13 00 D0 07 00 C0 00 00 
  1294)       899.0  Rx     18EF6304  8  02 00 00 49 49 49 E4 0C 
  1295)       899.3  Rx     18EF6305  8  00 48 48 48 00 00 48 00 
  1296)       900.5  Rx         00B1  8  D9 0C FF 00 00 FF 1F 1E 
  1297)       900.8  Rx         027D  8  00 40 01 00 00 00 00 00 
  1298)       904.2  Rx         00B9  8  DD 41 00 00 00 00 FF 32 
  1299)       904.5  Rx         0099  8  EF 11 00 00 00 20 00 20 
  1300)       905.8  Rx         00D1  8  7F 03 E0 00 E0 9E FF 64 
  1301)       908.3  Rx         02BB  8  43 FF 7F FF CF 20 FF 3D 
  1302)       908.5  Rx         0113  8  87 03 00 7D 02 00 2F 01 
  1303)       910.5  Rx         00B1  8  F8 0D FF 00 00 FF 1F 1E 
  1304)       910.8  Rx         0170  8  FF FF 00 00 00 00 00 00 
  1305)       911.0  Rx         0371  8  A8 46 F2 09 3E 3D 3B 01 
  1306)       912.2  Rx         013B  8  5A 09 00 00 00 E3 46 04 
  1307)       912.5  Rx         010B  8  00 00 AF 0B 00 9E 3F 00 
  1308)       912.7  Rx         0076  8  0E 8A A0 87 DA 3E 00 00 
  1309)       913.0  Rx         00B0  8  08 5F BA 8E FE 7F E7 0F 
  1310)       913.6  Rx         007F  8  FF 3F FF 1F FF 3F FF 1F 
  1311)       914.2  Rx         00A1  8  BA A1 00 00 00 00 00 00 
  1312)       914.5  Rx         00A3  8  4E A1 00 00 00 00 00 00 
  1313)       915.5  Rx         0489  8  00 14 38 82 43 57 66 00 
  1314)       916.5  Rx         009C  8  BE 26 58 FF 03 14 00 00 
  1315)       917.2  Rx         0085  8  28 07 00 00 00 55 31 05 
  1316)       917.5  Rx         00A9  8  80 07 00 00 00 00 00 00 
  1317)       917.7  Rx         00AE  8  98 D8 BE 03 00 00 68 00 
  1318)       918.0  Rx         0110  8  DD 37 E6 05 80 78 00 80 
  1319)       918.5  Rx     18EF6303  8  0D 00 00 40 1F AC 0D 00 
  1320)       918.8  Rx     18EF6304  8  03 00 00 00 00 00 00 00 
  1321)       919.1  Rx     18EF6305  8  01 00 00 00 00 00 00 1D 
  1322)       920.5  Rx         00B1  8  7D 0E FF 00 00 FF 1F 1E 
  1323)       920.7  Rx         0161  8  4B 48 00 00 00 00 FF 01 
  1324)       921.0  Rx         027D  8  00 40 01 00 00 00 00 00 
  1325)       924.2  Rx         00B9  8  E2 42 00 00 00 00 FF 32 
  1326)       924.5  Rx         0099  8  F8 12 00 00 00 20 00 20 
  1327)       925.5  Rx         02B8  8  FF FF FF FF FF 1F 00 00 
  1328)       925.8  Rx         00D1  8  38 04 E0 00 E0 9E FF 64 
  1329)       926.7  Rx         0020  8  5C 0E 40 0C C0 00 00 00 
  1330)       927.3  Rx         01E4  8  00 00 00 00 00 00 00 00 
  1331)       928.3  Rx         0113  8  AC 04 00 7D 02 00 2F 01 
  1332)       930.5  Rx         00B1  8  81 0F FF 00 00 FF 1F 1E 
  1333)       930.8  Rx         0173  8  00 00 00 00 00 00 F0 3F 
  1334)       931.0  Rx         0371  8  EF 47 F2 09 3E 3D 3B 01 
  1335)       932.0  Rx         010B  8  00 00 AF 0B 00 9E 3F 00 
  1336)       932.2  Rx         0076  8  0F 8A A0 87 DA 3E 00 00 
  1337)       932.5  Rx         00B0  8  08 5F BA 8E FE 7F E7 0F 
  1338)       933.8  Rx     0BA40000  8  20 00 00 00 00 00 00 00 
  1339)       934.2  Rx         00A1  8  90 A2 00 00 00 00 00 00 
  1340)       934.4  Rx         00A3  8  D2 A2 00 00 00 00 00 00 
  1341)       936.6  Rx         009C  8  6C 27 58 FF 03 14 00 00 
  1342)       937.2  Rx         0085  8  D4 08 00 00 00 55 31 05 
  1343)       937.5  Rx         00A9  8  1F 08 00 00 00 00 00 00 
  1344)       937.8  Rx         00AE  8  CB D9 BE 03 00 00 68 00 
  1345)       938.0  Rx         0110  8  0C 38 E6 05 80 78 00 80 
  1346)       938.2  Rx         0151  8  60 FF FA 92 00 80 DC CC 
  1347)       938.5  Rx     18EF6303  8  0E 54 0D AC 0D 40 1F 00 
  1348)       938.8  Rx     18EF6304  8  04 00 00 00 00 00 00 00 
  1349)       939.0  Rx         02CB  8  00 00 3D 3C FF 2A 00 00 
  1350)       939.3  Rx     18EF6305  8  02 00 00 04 00 01 E8 4E 
  1351)       940.5  Rx         00B1  8  A3 00 FF 00 00 FF 1F 1E 
  1352)       940.7  Rx         027D  8  00 40 01 00 00 00 00 00 
  1353)       941.6  Rx         0138  8  00 00 43 44 FC 1F 00 00 
  1354)       943.7  Rx     04880001  8  0A 5F 00 00 00 00 00 00 
  1355)       944.2  Rx         00B9  8  F7 43 00 00 00 00 FF 32 
  1356)       944.5  Rx         0099  8  8E 13 00 00 00 20 00 20 
  1357)       945.7  Rx         00D1  8  0A 05 E0 00 E0 9E FF 64 
  1358)       948.3  Rx         0113  8  F7 05 00 7D 02 00 2F 01 
  1359)       950.6  Rx         00B1  8  08 01 FF 00 00 FF 1F 1E 
  1360)       950.8  Rx         0371  8  4B 48 F2 09 3E 3D 3B 01 
  1361)       951.7  Rx         0071  8  00 57 31 4E 32 34 33 37 
  1362)       952.0  Rx         010B  8  00 00 AF 0B 00 9E 3F 00 
  1363)       952.2  Rx         0076  8  0F 7A A0 87 DA 3E 00 00 
  1364)       952.5  Rx         00B0  8  08 5F BA 8E FE 7F E7 0F 
  1365)       954.2  Rx         00A1  8  2F A3 00 00 00 00 00 00 
  1366)       954.4  Rx         00A3  8  75 A3 00 00 00 00 00 00 
  1367)       955.5  Rx         02D3  8  7A FF 47 0B 7E 00 80 DF 
  1368)       955.7  Rx         0068  1  02 
  1369)       956.6  Rx         009C  8  1C 28 58 FF 03 14 00 00 
  1370)       957.3  Rx         0085  8  AC 09 00 00 00 55 31 05 
  1371)       957.5  Rx         00A9  8  D5 09 00 00 00 00 00 00 
  1372)       957.7  Rx         00AE  8  05 DA BE 03 00 00 68 00 
  1373)       958.0  Rx         0110  8  E7 39 E6 05 80 78 00 80 
  1374)       958.4  Rx     18EF6303  8  0F 00 30 0D 65 0B 01 70 
  1375)       958.7  Rx         013C  8  FF FF 00 01 E9 1A 02 01 
  1376)       958.9  Rx         0493  8  23 00 21 00 DD 05 91 7E 
  1377)       959.2  Rx     18EF6304  8  05 00 00 00 00 00 00 00 
  1378)       959.5  Rx     18EF6305  8  03 00 00 00 00 00 00 0C 
  1379)       960.5  Rx         00B1  8  1F 02 FF 00 00 FF 1F 1E 
  1380)       960.8  Rx         027D  8  00 40 01 00 00 00 00 00 
  1381)       961.0  Rx         02CA  8  FF FF FF 03 00 00 00 00 
  1382)       964.2  Rx         00B9  8  20 44 00 00 00 00 FF 32 
  1383)       964.5  Rx         0099  8  05 14 00 00 00 20 00 20 
  1384)       965.7  Rx         00D1  8  FD 06 E0 01 E0 9E FF 64 
  1385)       968.3  Rx         0113  8  4D 06 00 7D 02 00 2F 01 
  1386)       968.7  Rx         01BD  8  FF FF FF 1F FF FF FF 1F 
  1387)       970.5  Rx         00B1  8  B4 03 FF 00 00 FF 1F 1E 
  1388)       970.8  Rx         0371  8  2A 49 F2 09 3E 3D 3B 01 
  1389)       971.7  Rx         0071  8  01 31 32 32 4A 30 32 33 
  1390)       972.0  Rx         010B  8  00 00 AF 0B 00 9E 3F 00 
  1391)       972.2  Rx         0076  8  0F 7A A0 87 DA 3E 00 00 
  1392)       972.5  Rx         00B0  8  08 5F BA 8E FE 7F E7 0F 
  1393)       974.2  Rx         00A1  8  73 A4 00 00 00 00 00 00 
  1394)       974.4  Rx         00A3  8  3B A4 00 00 00 00 00 00 
  1395)       976.5  Rx         009C  8  31 29 58 FF 03 14 00 00 
  1396)       977.3  Rx         0085  8  02 0A 00 00 00 55 31 05 
  1397)       977.5  Rx         00A9  8  42 0A 00 00 00 00 00 00 
  1398)       977.7  Rx         00AE  8  B8 DB BE 03 00 00 68 00 
  1399)       978.0  Rx         0110  8  3A 3A E6 05 80 78 00 80 
  1400)       978.5  Rx     18EF6303  8  10 27 01 E8 00 72 03 08 
  1401)       978.8  Rx     18EF6304  8  06 00 00 00 00 00 00 54 
  1402)       979.1  Rx     18EF6305  8  04 03 00 03 00 03 00 00 
  1403)       980.5  Rx         00B1  8  E2 04 FF 00 00 FF 1F 1E 
  1404)       980.8  Rx         0233  8  02 FF 00 00 00 00 00 00 
  1405)       981.0  Rx         027D  8  00 40 01 00 00 00 00 00 
  1406)       984.2  Rx         00B9  8  CB 45 00 00 00 00 FF 32 
  1407)       984.5  Rx         0099  8  E6 15 00 00 00 20 00 20 
  1408)       985.8  Rx         00D1  8  13 07 E0 00 E0 9E FF 64 
  1409)       986.6  Rx         0134  8  02 84 30 55 F4 21 00 00 
  1410)       987.2  Rx         03F2  8  FF 01 00 00 00 00 7A FF 
  1411)       988.4  Rx         0113  8  44 07 00 7D 02 00 2F 01 
  1412)       990.5  Rx         00B1  8  AF 05 FF 00 00 FF 1F 1E 
  1413)       990.7  Rx         0371  8  60 4A F2 09 3E 3D 3B 01 
  1414)       991.6  Rx         0136  8  00 07 00 04 1C 00 00 00 
  1415)       991.8  Rx         0071  8  02 31 32 32 FF FF FF FF 
  1416)       992.0  Rx         010B  8  00 00 AF 0B 00 9E 3F 00 
  1417)       992.3  Rx         0076  8  0F 7A A0 87 DA 3E 00 00 
  1418)       992.5  Rx         00B0  8  08 5F BA 8E FE 7F E7 0F 
  1419)       994.2  Rx         00A1  8  E2 A5 00 00 00 00 00 00 
  1420)       994.5  Rx         00A3  8  1C A5 00 00 00 00 00 00 
  1421)       996.5  Rx         009C  8  9E 2A 58 FF 03 14 00 00 
  1422)       997.3  Rx         0085  8  60 0B 00 00 00 55 31 05 
  1423)       997.5  Rx         00A9  8  88 0B 00 00 00 00 00 00 
  1424)       997.7  Rx         00AE  8  32 DC BE 03 00 00 68 00 
  1425)       998.0  Rx         0110  8  9A 3B E6 05 80 78 00 80 
  1426)       998.5  Rx     18EF6303  8  11 01 01 06 01 01 02 00 
  1427)       998.7  Rx         00D3  8  13 00 D0 07 00 C0 00 00 
  1428)       999.0  Rx     18EF6304  8  07 D7 05 95 16 DE 0C 00 
  1429)       999.3  Rx     18EF6305  8  05 42 36 F0 0C 12 00 00 
  1430)      1000.5  Rx         00B1  8  9B 06 FF 00 00 FF 1F 1E 
  1431)      1000.7  Rx         027D  8  00 40 01 00 00 00 00 00 
  1432)      1004.2  Rx         00B9  8  AA 46 00 00 00 00 FF 32 
  1433)      1004.5  Rx         0099  8  0F 16 00 00 00 20 00 20 
  1434)      1005.8  Rx         00D1  8  8D 08 E0 00 E0 9E FF 64 
  1435)      1008.3  Rx         02BB  8  43 FF 7F FF CF 20 FF 3D 
  1436)      1008.5  Rx         0113  8  10 08 00 7D 02 00 2F 01 
  1437)      1010.5  Rx         00B1  8  35 07 FF 00 00 FF 1F 1E 
  1438)      1010.8  Rx         0170  8  FF FF 00 00 00 00 00 00 
  1439)      1011.0  Rx         0371  8  FE 4B F2 09 3E 3D 3B 01 
  1440)      1012.2  Rx         013B  8  91 0A 00 00 00 E3 46 04 
  1441)      1012.5  Rx         010B  8  00 00 AF 0B 00 9E 3F 00 
  1442)      1012.7  Rx         0076  8  0F 7A A0 87 DA 3E 00 00 
  1443)      1013.0  Rx         00B0  8  08 5F BA 8E FE 7F E7 0F 
  1444)      1013.7  Rx         007F  8  FF 3F FF 1F FF 3F FF 1F 
  1445)      1014.2  Rx         00A1  8  6C A6 00 00 00 00 00 00 
  1446)      1014.5  Rx         00A3  8  95 A6 00 00 00 00 00 00 
  1447)      1016.6  Rx         009C  8  66 2B 58 FF 03 14 00 00 
  1448)      1017.2  Rx         0085  8  9A 0C 00 00 00 55 31 05 
  1449)      1017.5  Rx         009A  8  88 13 00 00 00 00 80 7E 
  1450)      1017.8  Rx         00A9  8  46 0C 00 00 00 00 00 00 
  1451)      1018.0  Rx         00AE  8  6A DD BE 03 00 00 68 00 
  1452)      1018.2  Rx         0110  8  44 3C E6 05 80 78 00 80 
  1453)      1018.5  Rx         02FC  8  D8 3F 00 00 00 00 00 00 
  1454)      1018.7  Rx     18EF6303  8  00 D9 00 D8 00 14 01 7A 
  1455)      1019.0  Rx     18EF6304  8  00 00 00 04 00 00 00 64 
  1456)      1019.3  Rx     18EF6305  8  00 48 48 48 00 00 48 00 
  1457)      1020.5  Rx         003F  8  1A 7B 00 00 01 00 FC 5F 
  1458)      1020.7  Rx         00B1  8  41 08 FF 00 00 FF 1F 1E 
  1459)      1021.0  Rx         027D  8  00 40 01 00 00 00 00 00 
  1460)      1021.2  Rx         0559  8  04 59 0B 04 00 00 00 00 
  1461)      1021.7  Rx         046B  8  00 00 3C 50 50 B8 4C 10 
  1462)      1024.2  Rx         00B9  8  0A 47 00 00 00 00 FF 32 
  1463)      1024.4  Rx         0099  8  0A 17 00 00 00 20 00 20 
  1464)      1025.5  Rx         026A  8  6F 01 DC E2 FE FE FF FF 
  1465)      1025.8  Rx         02B8  8  FF FF FF FF FF 1F 00 00 
  1466)      1026.0  Rx         00D1  8  4B F9 DF 00 E0 9E FF 64 
  1467)      1026.7  Rx         0020  8  1D 0F 40 0C C0 00 00 00 
  1468)      1027.3  Rx         01E4  8  00 00 00 00 00 00 00 00 
  1469)      1027.4  Rx         02CE  2  3F 00 
  1470)      1027.6  Rx         044B  8  00 00 00 5E 1D 4C 07 04 
  1471)      1028.3  Rx         0113  8  4B 09 00 7D 02 00 2F 01 
  1472)      1030.5  Rx         00B1  8  0C 09 FF 00 00 FF 1F 1E 
  1473)      1030.8  Rx         0173  8  00 00 00 00 00 00 F0 3F 
  1474)      1031.0  Rx         0371  8  E8 4C F2 09 3E 3D 3B 01 
  1475)      1031.2  Rx         03EA  8  00 00 00 00 00 00 00 00 
  1476)      1032.0  Rx         010B  8  00 00 AF 0B 00 9E 3F 00 
  1477)      1032.3  Rx         0076  8  0F 7A A0 87 DA 3E 00 00 
  1478)      1032.5  Rx         00B0  8  08 5F BA 8E FE 7F E7 0F 
  1479)      1033.8  Rx     0BA40000  8  20 00 00 00 00 00 00 00 
  1480)      1034.0  Rx         045A  8  97 C3 E5 E8 02 46 15 CB 
  1481)      1034.3  Rx         00A1  8  A1 A7 00 00 00 00 00 00 
  1482)      1034.5  Rx         00A3  8  4A A7 00 00 00 00 00 00 
  1483)      1036.6  Rx         009C  8  A9 2C 58 FF 03 14 00 00 
  1484)      1037.2  Rx         0085  8  3D 0D 00 00 00 55 31 05 
  1485)      1037.5  Rx         00A9  8  8C 0D 00 00 00 00 00 00 
  1486)      1037.7  Rx         00AE  8  17 DE BE 03 00 00 68 00 
  1487)      1038.0  Rx         0110  8  4A 3D E6 05 80 78 00 80 
  1488)      1038.2  Rx         0151  8  60 FF FA 92 00 80 FF CD 
